 (000.000000)  can0  0CF00400   [8]  F0 7D 7D 00 00 FF FF FF
 (000.001671)  can0  08FE6E0B   [8]  FF FE FF FE FF FE FF FE
 (000.015172)  can0  0CF00400   [8]  F0 7D 7D 00 00 FF FF FF
 (000.021646)  can0  08FE6E0B   [8]  FF FE FF FE FF FE FF FE
 (000.022218)  can0  18F0010B   [8]  C0 FF 33 FF FF 50 0B 3F
 (000.022820)  can0  18FEBF0B   [8]  FF FE FF FF FF FF FF FF
 (000.024144)  can0  18EBFF0B   [8]  03 18 03 02 7E 22 03 04
 (000.030345)  can0  0CF00400   [8]  F0 7D 7D 00 00 FF FF FF
 (000.030968)  can0  0CF00300   [8]  FF 00 00 FF FF FF FF FF
 (000.031595)  can0  18F00029   [8]  F0 7D FF FF FF FF FF FF
 (000.032242)  can0  18FEF200   [8]  00 00 00 00 10 05 FF FF
 (000.032869)  can0  18FEF100   [8]  FF 00 00 50 00 00 00 FF
 (000.041673)  can0  08FE6E0B   [8]  FF FE FF FE FF FE FF FE
 (000.044970)  can0  0CF00400   [8]  F0 7D 7D 00 00 FF FF FF
 (000.059899)  can0  0CF00400   [8]  F0 7D 7D 00 00 FF FF FF
 (000.061670)  can0  08FE6E0B   [8]  FF FE FF FE FF FE FF FE
 (000.074121)  can0  18EBFF0B   [8]  04 7E 18 03 07 01 FF FF
 (000.075069)  can0  0CF00400   [8]  F0 7D 7D 00 00 FF FF FF
 (000.081670)  can0  08FE6E0B   [8]  FF FE FF FE FF FE FF FE
 (000.089952)  can0  0CF00400   [8]  F0 7D 7D 00 00 FF FF FF
 (000.090576)  can0  0CF00300   [8]  FF 00 00 FF FF FF FF FF
 (000.101661)  can0  08FE6E0B   [8]  FF FE FF FE FF FE FF FE
 (000.104910)  can0  0CF00400   [8]  F0 7D 7D 00 00 FF FF FF
 (000.119810)  can0  0CF00400   [8]  F0 7D 7D 00 00 FF FF FF
 (000.121662)  can0  08FE6E0B   [8]  FF FE FF FE FF FE FF FE
 (000.122237)  can0  18F0010B   [8]  C0 FF 33 FF FF 50 0B 3F
 (000.122830)  can0  18FEBF0B   [8]  FF FE FF FF FF FF FF FF
 (000.135389)  can0  0CF00400   [8]  F0 7D 7D 00 00 FF FF FF
 (000.136003)  can0  0CF00300   [8]  FF 00 00 FF FF FF FF FF
 (000.136652)  can0  18F00029   [8]  F0 7D FF FF FF FF FF FF
 (000.137301)  can0  18FEF200   [8]  00 00 00 00 10 05 FF FF
 (000.137901)  can0  18FEF100   [8]  FF 00 00 50 00 00 00 FF
 (000.141701)  can0  08FE6E0B   [8]  FF FE FF FE FF FE FF FE
 (000.149765)  can0  0CF00400   [8]  F0 7D 7D 00 00 FF FF FF
 (000.161678)  can0  08FE6E0B   [8]  FF FE FF FE FF FE FF FE
 (000.164783)  can0  0CF00400   [8]  F0 7D 7D 00 00 FF FF FF
 (000.179752)  can0  0CF00400   [8]  F0 7D 7D 00 00 FF FF FF
 (000.180376)  can0  0CF00300   [8]  FF 00 00 FF FF FF FF FF
 (000.181701)  can0  08FE6E0B   [8]  FF FE FF FE FF FE FF FE
 (000.194828)  can0  0CF00400   [8]  F0 7D 7D 00 00 FF FF FF
 (000.201685)  can0  08FE6E0B   [8]  FF FE FF FE FF FE FF FE
 (000.209731)  can0  0CF00400   [8]  F0 7D 7D 00 00 FF FF FF
 (000.221658)  can0  08FE6E0B   [8]  FF FE FF FE FF FE FF FE
 (000.222228)  can0  18F0010B   [8]  C0 FF 33 FF FF 50 0B 3F
 (000.222802)  can0  18FEBF0B   [8]  FF FE FF FF FF FF FF FF
 (000.224800)  can0  0CF00400   [8]  F0 7D 7D 00 00 FF FF FF
 (000.240227)  can0  0CF00400   [8]  F0 7D 7D 00 00 FF FF FF
 (000.240873)  can0  0CF00300   [8]  FF 00 00 FF FF FF FF FF
 (000.241472)  can0  18FEDF00   [8]  81 E0 15 FF FF FF FF FF
 (000.242070)  can0  08FE6E0B   [8]  FF FE FF FE FF FE FF FE
 (000.242647)  can0  18F00029   [8]  F0 7D FF FF FF FF FF FF
 (000.243297)  can0  18FEEE00   [8]  77 FF FF FF FF FF FF FF
 (000.243918)  can0  18FEF200   [8]  00 00 00 00 10 05 FF FF
 (000.244546)  can0  18FEF600   [8]  FF 00 76 FF FF FF FF FF
 (000.245193)  can0  18FEDB00   [8]  80 11 FF FF FF FF FF FF
 (000.245819)  can0  18FEF100   [8]  FF 00 00 50 00 00 00 FF
 (000.246446)  can0  18FEEF00   [8]  FF FF FF 07 FF FF FF FF
 (000.254847)  can0  0CF00400   [8]  F0 7D 7D 00 00 FF FF FF
 (000.261677)  can0  08FE6E0B   [8]  FF FE FF FE FF FE FF FE
 (000.269549)  can0  0CF00400   [8]  F0 7D 7D 00 00 FF FF FF
 (000.281675)  can0  08FE6E0B   [8]  FF FE FF FE FF FE FF FE
 (000.284650)  can0  0CF00400   [8]  F0 7D 7D 00 00 FF FF FF
 (000.285296)  can0  0CF00300   [8]  FF 00 00 FF FF FF FF FF
 (000.299498)  can0  0CF00400   [8]  F0 7D 7D 00 00 FF FF FF
 (000.301670)  can0  08FE6E0B   [8]  FF FE FF FE FF FE FF FE
 (000.314622)  can0  0CF00400   [8]  F0 7D 7D 00 00 FF FF FF
 (000.321671)  can0  08FE6E0B   [8]  FF FE FF FE FF FE FF FE
 (000.322217)  can0  18F0010B   [8]  C0 FF 33 FF FF 50 0B 3F
 (000.322820)  can0  18FEBF0B   [8]  FF FE FF FF FF FF FF FF
 (000.329896)  can0  0CF00400   [8]  F0 7D 7D 00 00 FF FF FF
 (000.330544)  can0  0CF00300   [8]  FF 00 00 FF FF FF FF FF
 (000.331167)  can0  18F00029   [8]  F0 7D FF FF FF FF FF FF
 (000.331794)  can0  18FEF200   [8]  00 00 00 00 10 05 FF FF
 (000.332444)  can0  18FEF100   [8]  FF 00 00 50 00 00 00 FF
 (000.341671)  can0  08FE6E0B   [8]  FF FE FF FE FF FE FF FE
 (000.344494)  can0  0CF00400   [8]  F0 7D 7D 00 00 FF FF FF
 (000.359425)  can0  0CF00400   [8]  F0 7D 7D 00 00 FF FF FF
 (000.361671)  can0  08FE6E0B   [8]  FF FE FF FE FF FE FF FE
 (000.374597)  can0  0CF00400   [8]  F0 7D 7D 00 00 FF FF FF
 (000.381672)  can0  08FE6E0B   [8]  FF FE FF FE FF FE FF FE
 (000.389421)  can0  0CF00400   [8]  F0 7D 7D 00 00 FF FF FF
 (000.390043)  can0  0CF00300   [8]  FF 00 00 FF FF FF FF FF
 (000.401673)  can0  08FE6E0B   [8]  FF FE FF FE FF FE FF FE
 (000.404396)  can0  0CF00400   [8]  F0 7D 7D 00 00 FF FF FF
 (000.419323)  can0  0CF00400   [8]  F0 7D 7D 00 00 FF FF FF
 (000.421671)  can0  08FE6E0B   [8]  FF FE FF FE FF FE FF FE
 (000.422217)  can0  18F0010B   [8]  C0 FF 33 FF FF 50 0B 3F
 (000.422819)  can0  18FEBF0B   [8]  FF FE FF FF FF FF FF FF
 (000.434845)  can0  0CF00400   [8]  F0 7D 7D 00 00 FF FF FF
 (000.435444)  can0  0CF00300   [8]  FF 00 00 FF FF FF FF FF
 (000.436092)  can0  18F00029   [8]  F0 7D FF FF FF FF FF FF
 (000.436744)  can0  18FEF200   [8]  00 00 00 00 10 05 FF FF
 (000.437369)  can0  18FEF100   [8]  FF 00 00 50 00 00 00 FF
 (000.441694)  can0  08FE6E0B   [8]  FF FE FF FE FF FE FF FE
 (000.449296)  can0  0CF00400   [8]  F0 7D 7D 00 00 FF FF FF
 (000.461683)  can0  08FE6E0B   [8]  FF FE FF FE FF FE FF FE
 (000.464302)  can0  0CF00400   [8]  F0 7D 7D 00 00 FF FF FF
 (000.479330)  can0  0CF00400   [8]  F0 7D 7D 00 00 FF FF FF
 (000.479953)  can0  0CF00300   [8]  FF 00 00 FF FF FF FF FF
 (000.480601)  can0  18FEDF00   [8]  81 E0 15 FF FF FF FF FF
 (000.481726)  can0  08FE6E0B   [8]  FF FE FF FE FF FE FF FE
 (000.494402)  can0  0CF00400   [8]  F0 7D 7D 00 00 FF FF FF
 (000.501678)  can0  08FE6E0B   [8]  FF FE FF FE FF FE FF FE
 (000.509177)  can0  0CF00400   [8]  F0 7D 7D 00 00 FF FF FF
 (000.521678)  can0  08FE6E0B   [8]  FF FE FF FE FF FE FF FE
 (000.522227)  can0  18F0010B   [8]  C0 FF 33 FF FF 50 0B 3F
 (000.522826)  can0  18FEBF0B   [8]  FF FE FF FF FF FF FF FF
 (000.524350)  can0  0CF00400   [8]  F0 7D 7D 00 00 FF FF FF
 (000.539553)  can0  0CF00400   [8]  F0 7D 7D 00 00 FF FF FF
 (000.540201)  can0  0CF00300   [8]  FF 00 00 FF FF FF FF FF
 (000.540826)  can0  18F00029   [8]  F0 7D FF FF FF FF FF FF
 (000.541449)  can0  18FEF200   [8]  00 00 00 00 10 05 FF FF
 (000.542051)  can0  08FE6E0B   [8]  FF FE FF FE FF FE FF FE
 (000.542625)  can0  18FEF100   [8]  FF 00 00 50 00 00 00 FF
 (000.554258)  can0  0CF00400   [8]  F0 7D 7D 00 00 FF FF FF
 (000.561710)  can0  08FE6E0B   [8]  FF FE FF FE FF FE FF FE
 (000.569146)  can0  0CF00400   [8]  F0 7D 7D 00 00 FF FF FF
 (000.581683)  can0  08FE6E0B   [8]  FF FE FF FE FF FE FF FE
 (000.584174)  can0  0CF00400   [8]  F0 7D 7D 00 00 FF FF FF
 (000.584799)  can0  0CF00300   [8]  FF 00 00 FF FF FF FF FF
 (000.599025)  can0  0CF00400   [8]  F0 7D 7D 00 00 FF FF FF
 (000.601678)  can0  08FE6E0B   [8]  FF FE FF FE FF FE FF FE
 (000.614199)  can0  0CF00400   [8]  F0 7D 7D 00 00 FF FF FF
 (000.621707)  can0  08FE6E0B   [8]  FF FE FF FE FF FE FF FE
 (000.622241)  can0  18F0010B   [8]  C0 FF 33 FF FF 50 0B 3F
 (000.622852)  can0  18FEBF0B   [8]  FF FE FF FF FF FF FF FF
 (000.629373)  can0  0CF00400   [8]  F0 7D 7D 00 00 FF FF FF
 (000.629991)  can0  0CF00300   [8]  FF 00 00 FF FF FF FF FF
 (000.630643)  can0  18F00029   [8]  F0 7D FF FF FF FF FF FF
 (000.631292)  can0  18FEF200   [8]  00 00 00 00 10 05 FF FF
 (000.631889)  can0  18FEF100   [8]  FF 00 00 50 00 00 00 FF
 (000.641673)  can0  08FE6E0B   [8]  FF FE FF FE FF FE FF FE
 (000.644071)  can0  0CF00400   [8]  F0 7D 7D 00 00 FF FF FF
 (000.658948)  can0  0CF00400   [8]  F0 7D 7D 00 00 FF FF FF
 (000.661672)  can0  08FE6E0B   [8]  FF FE FF FE FF FE FF FE
 (000.674085)  can0  0CF00400   [8]  F0 7D 7D 00 00 FF FF FF
 (000.681863)  can0  08FE6E0B   [8]  FF FE FF FE FF FE FF FE
 (000.689179)  can0  0CF00400   [8]  F0 7D 7D 00 00 FF FF FF
 (000.689662)  can0  0CF00300   [8]  FF 00 00 FF FF FF FF FF
 (000.701854)  can0  08FE6E0B   [8]  FF FE FF FE FF FE FF FE
 (000.704077)  can0  0CF00400   [8]  F0 7D 7D 00 00 FF FF FF
 (000.718976)  can0  0CF00400   [8]  F0 7D 7D 00 00 FF FF FF
 (000.721882)  can0  08FE6E0B   [8]  FF FE FF FE FF FE FF FE
 (000.722324)  can0  18F0010B   [8]  C0 FF 33 FF FF 50 0B 3F
 (000.722951)  can0  18FEBF0B   [8]  FF FE FF FF FF FF FF FF
 (000.734691)  can0  0CF00400   [8]  F0 7D 7D 00 00 FF FF FF
 (000.735445)  can0  0CF00300   [8]  FF 00 00 FF FF FF FF FF
 (000.736037)  can0  18FEDF00   [8]  81 E0 15 FF FF FF FF FF
 (000.736671)  can0  18F00029   [8]  F0 7D FF FF FF FF FF FF
 (000.737297)  can0  18FEF200   [8]  00 00 00 00 10 05 FF FF
 (000.737922)  can0  18FEF600   [8]  FF 00 76 FF FF FF FF FF
 (000.738576)  can0  18FEDB00   [8]  80 11 FF FF FF FF FF FF
 (000.739185)  can0  18FEF100   [8]  FF 00 00 50 00 00 00 FF
 (000.739791)  can0  18FEEF00   [8]  FF FF FF 07 FF FF FF FF
 (000.741757)  can0  08FE6E0B   [8]  FF FE FF FE FF FE FF FE
 (000.748968)  can0  0CF00400   [8]  F0 7D 7D 00 00 FF FF FF
 (000.761865)  can0  08FE6E0B   [8]  FF FE FF FE FF FE FF FE
 (000.763988)  can0  0CF00400   [8]  F0 7D 7D 00 00 FF FF FF
 (000.779037)  can0  0CF00400   [8]  F0 7D 7D 00 00 FF FF FF
 (000.779643)  can0  0CF00300   [8]  FF 00 00 FF FF FF FF FF
 (000.781834)  can0  08FE6E0B   [8]  FF FE FF FE FF FE FF FE
 (000.793995)  can0  0CF00400   [8]  F0 7D 7D 00 00 FF FF FF
 (000.801934)  can0  08FE6E0B   [8]  FF FE FF FE FF FE FF FE
 (000.809029)  can0  0CF00400   [8]  F0 7D 7D 00 00 FF FF FF
 (000.822017)  can0  08FE6E0B   [8]  FF FE FF FE FF FE FF FE
 (000.822280)  can0  18F0010B   [8]  C0 FF 33 FF FF 50 0B 3F
 (000.823057)  can0  18FEBF0B   [8]  FF FE FF FF FF FF FF FF
 (000.824211)  can0  0CF00400   [8]  F0 7D 7D 00 00 FF FF FF
 (000.839255)  can0  0CF00400   [8]  F0 7D 7D 00 00 FF FF FF
 (000.839803)  can0  0CF00300   [8]  FF 00 00 FF FF FF FF FF
 (000.840520)  can0  18F00029   [8]  F0 7D FF FF FF FF FF FF
 (000.841156)  can0  18FEF200   [8]  00 00 00 00 10 05 FF FF
 (000.841793)  can0  18FEF100   [8]  FF 00 00 50 00 00 00 FF
 (000.842266)  can0  08FE6E0B   [8]  FF FE FF FE FF FE FF FE
 (000.854196)  can0  18ECFF00   [8]  20 1C 00 04 FF E3 FE 00
 (000.854491)  can0  0CF00400   [8]  F0 7D 7D 00 00 FF FF FF
 (000.861970)  can0  08FE6E0B   [8]  FF FE FF FE FF FE FF FE
 (000.868897)  can0  0CF00400   [8]  F0 7D 7D 00 00 FF FF FF
 (000.874633)  can0  18ECFF0B   [8]  20 1A 00 04 FF CA FE 00
 (000.881998)  can0  08FE6E0B   [8]  FF FE FF FE FF FE FF FE
 (000.883923)  can0  0CF00400   [8]  F0 7D 7D 00 00 FF FF FF
 (000.884596)  can0  0CF00300   [8]  FF 00 00 FF FF FF FF FF
 (000.898607)  can0  0CF00400   [8]  F0 7D 7D 00 00 FF FF FF
 (000.901972)  can0  08FE6E0B   [8]  FF FE FF FE FF FE FF FE
 (000.913880)  can0  18EBFF00   [8]  01 E0 15 B3 80 52 8F 40
 (000.914229)  can0  0CF00400   [8]  F0 7D 7D 00 00 FF FF FF
 (000.921881)  can0  08FE6E0B   [8]  FF FE FF FE FF FE FF FE
 (000.922524)  can0  18F0010B   [8]  C0 FF 33 FF FF 50 0B 3F
 (000.922975)  can0  18FEBF0B   [8]  FF FE FF FF FF FF FF FF
 (000.924402)  can0  18EBFF0B   [8]  01 04 FF 15 03 02 7E 16
 (000.929184)  can0  0CF00400   [8]  F0 7D 7D 00 00 FF FF FF
 (000.929816)  can0  0CF00300   [8]  FF 00 00 FF FF FF FF FF
 (000.930313)  can0  18F00029   [8]  F0 7D FF FF FF FF FF FF
 (000.931102)  can0  18FEF200   [8]  00 00 00 00 10 05 FF FF
 (000.931694)  can0  18FEF100   [8]  FF 00 00 50 00 00 00 FF
 (000.941971)  can0  08FE6E0B   [8]  FF FE FF FE FF FE FF FE
 (000.943917)  can0  0CF00400   [8]  F0 7D 7D 00 00 FF FF FF
 (000.958674)  can0  0CF00400   [8]  F0 7D 7D 00 00 FF FF FF
 (000.961967)  can0  08FE6E0B   [8]  FF FE FF FE FF FE FF FE
 (000.973852)  can0  18EBFF00   [8]  02 1F D3 00 2D E0 C0 44
 (000.974210)  can0  0CF00400   [8]  F0 7D 7D 00 00 FF FF FF
 (000.974830)  can0  18EBFF0B   [8]  02 03 02 7E 17 03 02 7E
 (000.982001)  can0  08FE6E0B   [8]  FF FE FF FE FF FE FF FE
 (000.988716)  can0  0CF00400   [8]  F0 7D 7D 00 00 FF FF FF
 (000.989284)  can0  0CF00300   [8]  FF 00 00 FF FF FF FF FF
 (000.989957)  can0  18FEDF00   [8]  81 E0 15 FF FF FF FF FF
 (001.001968)  can0  08FE6E0B   [8]  FF FE FF FE FF FE FF FE
 (001.003855)  can0  0CF00400   [8]  F0 7D 7D 00 00 FF FF FF
 (001.018740)  can0  0CF00400   [8]  F0 7D 7D 00 00 FF FF FF
 (001.021967)  can0  08FE6E0B   [8]  FF FE FF FE FF FE FF FE
 (001.022404)  can0  18F0010B   [8]  C0 FF 33 FF FF 50 0B 3F
 (001.023051)  can0  18FEBF0B   [8]  FF FE FF FF FF FF FF FF
 (001.024414)  can0  18EBFF0B   [8]  03 18 03 02 7E 22 03 04
 (001.033739)  can0  18EBFF00   [8]  03 CD 80 52 FF FF A4 04
 (001.034203)  can0  0CF00400   [8]  F0 7D 7D 00 00 FF FF FF
 (001.034897)  can0  0CF00300   [8]  FF 00 00 FF FF FF FF FF
 (001.035574)  can0  18F00029   [8]  F0 7D FF FF FF FF FF FF
 (001.036183)  can0  18FEF200   [8]  00 00 00 00 10 05 FF FF
 (001.036819)  can0  18FEF100   [8]  FF 00 00 50 00 00 00 FF
 (001.041995)  can0  08FE6E0B   [8]  FF FE FF FE FF FE FF FE
 (001.048602)  can0  0CF00400   [8]  F0 7D 7D 00 00 FF FF FF
 (001.061969)  can0  08FE6E0B   [8]  FF FE FF FE FF FE FF FE
 (001.063717)  can0  0CF00400   [8]  F0 7D 7D 00 00 FF FF FF
 (001.074363)  can0  18EBFF0B   [8]  04 7E 18 03 07 01 FF FF
 (001.078576)  can0  0CF00400   [8]  F0 7D 7D 00 00 FF FF FF
 (001.079182)  can0  0CF00300   [8]  FF 00 00 FF FF FF FF FF
 (001.081966)  can0  08FE6E0B   [8]  FF FE FF FE FF FE FF FE
 (001.093646)  can0  18EBFF00   [8]  04 C0 58 FA FF FF FF FF
 (001.094046)  can0  0CF00400   [8]  F0 7D 7D 00 00 FF FF FF
 (001.101915)  can0  08FE6E0B   [8]  FF FE FF FE FF FE FF FE
 (001.108557)  can0  0CF00400   [8]  F0 7D 7D 00 00 FF FF FF
 (001.122001)  can0  08FE6E0B   [8]  FF FE FF FE FF FE FF FE
 (001.122256)  can0  18F0010B   [8]  C0 FF 33 FF FF 50 0B 3F
 (001.123071)  can0  18FEBF0B   [8]  FF FE FF FF FF FF FF FF
 (001.123874)  can0  0CF00400   [8]  F0 7D 7D 00 00 FF FF FF
 (001.138856)  can0  0CF00400   [8]  F0 7D 7D 00 00 FF FF FF
 (001.139366)  can0  0CF00300   [8]  FF 00 00 FF FF FF FF FF
 (001.140043)  can0  18F00029   [8]  F0 7D FF FF FF FF FF FF
 (001.140695)  can0  18FEF200   [8]  00 00 00 00 10 05 FF FF
 (001.141308)  can0  18FEF100   [8]  FF 00 00 50 00 00 00 FF
 (001.142022)  can0  08FE6E0B   [8]  FF FE FF FE FF FE FF FE
 (001.153384)  can0  0CF00400   [8]  F0 7D 7D 00 00 FF FF FF
 (001.161986)  can0  08FE6E0B   [8]  FF FE FF FE FF FE FF FE
 (001.168383)  can0  0CF00400   [8]  F0 7D 7D 00 00 FF FF FF
 (001.181884)  can0  08FE6E0B   [8]  FF FE FF FE FF FE FF FE
 (001.183508)  can0  0CF00400   [8]  F0 7D 7D 00 00 FF FF FF
 (001.184113)  can0  0CF00300   [8]  FF 00 00 FF FF FF FF FF
 (001.198350)  can0  0CF00400   [8]  F0 7D 7D 00 00 FF FF FF
 (001.201958)  can0  08FE6E0B   [8]  FF FE FF FE FF FE FF FE
 (001.213546)  can0  0CF00400   [8]  F0 7D 7D 00 00 FF FF FF
 (001.221999)  can0  08FE6E0B   [8]  FF FE FF FE FF FE FF FE
 (001.222373)  can0  18F0010B   [8]  C0 FF 33 FF FF 50 0B 3F
 (001.222962)  can0  18FEBF0B   [8]  FF FE FF FF FF FF FF FF
 (001.228701)  can0  0CF00400   [8]  F0 7D 7D 00 00 FF FF FF
 (001.229347)  can0  0CF00300   [8]  FF 00 00 FF FF FF FF FF
 (001.229974)  can0  18FEDF00   [8]  81 E0 15 FF FF FF FF FF
 (001.230566)  can0  18F00029   [8]  F0 7D FF FF FF FF FF FF
 (001.231252)  can0  18FEEE00   [8]  77 FF FF FF FF FF FF FF
 (001.231876)  can0  18FEF200   [8]  00 00 00 00 10 05 FF FF
 (001.232525)  can0  18FEF600   [8]  FF 00 76 FF FF FF FF FF
 (001.233152)  can0  18FEDB00   [8]  80 11 FF FF FF FF FF FF
 (001.233774)  can0  18FEF100   [8]  FF 00 00 50 00 00 00 FF
 (001.234424)  can0  18FEEF00   [8]  FF FF FF 07 FF FF FF FF
 (001.241749)  can0  08FE6E0B   [8]  FF FE FF FE FF FE FF FE
 (001.243227)  can0  0CF00400   [8]  F0 7D 7D 00 00 FF FF FF
 (001.258020)  can0  0CF00400   [8]  F0 7D 7D 00 00 FF FF FF
 (001.261954)  can0  08FE6E0B   [8]  FF FE FF FE FF FE FF FE
 (001.273411)  can0  0CF00400   [8]  F0 7D 7D 00 00 FF FF FF
 (001.282009)  can0  08FE6E0B   [8]  FF FE FF FE FF FE FF FE
 (001.288325)  can0  0CF00400   [8]  F0 7D 7D 00 00 FF FF FF
 (001.288871)  can0  0CF00300   [8]  FF 00 00 FF FF FF FF FF
 (001.301881)  can0  08FE6E0B   [8]  FF FE FF FE FF FE FF FE
 (001.303322)  can0  0CF00400   [8]  F0 7D 7D 00 00 FF FF FF
 (001.318086)  can0  0CF00400   [8]  F0 7D 7D 00 00 FF FF FF
 (001.321975)  can0  08FE6E0B   [8]  FF FE FF FE FF FE FF FE
 (001.322455)  can0  18F0010B   [8]  C0 FF 33 FF FF 50 0B 3F
 (001.323072)  can0  18FEBF0B   [8]  FF FE FF FF FF FF FF FF
 (001.333650)  can0  0CF00400   [8]  F0 7D 7D 00 00 FF FF FF
 (001.334176)  can0  0CF00300   [8]  FF 00 00 FF FF FF FF FF
 (001.334947)  can0  18F00029   [8]  F0 7D FF FF FF FF FF FF
 (001.335567)  can0  18FEF200   [8]  00 00 00 00 10 05 FF FF
 (001.336186)  can0  18FEF100   [8]  FF 00 00 50 00 00 00 FF
 (001.341995)  can0  08FE6E0B   [8]  FF FE FF FE FF FE FF FE
 (001.348071)  can0  0CF00400   [8]  F0 7D 7D 00 00 FF FF FF
 (001.362018)  can0  08FE6E0B   [8]  FF FE FF FE FF FE FF FE
 (001.363214)  can0  0CF00400   [8]  F0 7D 7D 00 00 FF FF FF
 (001.378123)  can0  0CF00400   [8]  F0 7D 7D 00 00 FF FF FF
 (001.378526)  can0  0CF00300   [8]  FF 00 00 FF FF FF FF FF
 (001.381912)  can0  08FE6E0B   [8]  FF FE FF FE FF FE FF FE
 (001.393210)  can0  0CF00400   [8]  F0 7D 7D 00 00 FF FF FF
 (001.401895)  can0  08FE6E0B   [8]  FF FE FF FE FF FE FF FE
 (001.408040)  can0  0CF00400   [8]  F0 7D 7D 00 00 FF FF FF
 (001.421950)  can0  08FE6E0B   [8]  FF FE FF FE FF FE FF FE
 (001.422427)  can0  18F0010B   [8]  C0 FF 33 FF FF 50 0B 3F
 (001.423071)  can0  18FEBF0B   [8]  FF FE FF FF FF FF FF FF
 (001.423644)  can0  0CF00400   [8]  F0 7D 7D 00 00 FF FF FF
 (001.438407)  can0  0CF00400   [8]  F0 7D 7D 00 00 FF FF FF
 (001.438842)  can0  0CF00300   [8]  FF 00 00 FF FF FF FF FF
 (001.439546)  can0  18F00029   [8]  F0 7D FF FF FF FF FF FF
 (001.440185)  can0  18FEF200   [8]  00 00 00 00 10 05 FF FF
 (001.440824)  can0  18FEF100   [8]  FF 00 00 50 00 00 00 FF
 (001.442062)  can0  08FE6E0B   [8]  FF FE FF FE FF FE FF FE
 (001.453056)  can0  0CF00400   [8]  F0 7D 7D 00 00 FF FF FF
 (001.462003)  can0  08FE6E0B   [8]  FF FE FF FE FF FE FF FE
 (001.467891)  can0  0CF00400   [8]  F0 7D 7D 00 00 FF FF FF
 (001.482011)  can0  08FE6E0B   [8]  FF FE FF FE FF FE FF FE
 (001.483119)  can0  0CF00400   [8]  F0 7D 7D 00 00 FF FF FF
 (001.483749)  can0  0CF00300   [8]  FF 00 00 FF FF FF FF FF
 (001.484363)  can0  18FEDF00   [8]  81 E0 15 FF FF FF FF FF
 (001.497809)  can0  0CF00400   [8]  F0 7D 7D 00 00 FF FF FF
 (001.501849)  can0  08FE6E0B   [8]  FF FE FF FE FF FE FF FE
 (001.512936)  can0  0CF00400   [8]  F0 7D 7D 00 00 FF FF FF
 (001.522002)  can0  08FE6E0B   [8]  FF FE FF FE FF FE FF FE
 (001.522429)  can0  18F0010B   [8]  C0 FF 33 FF FF 50 0B 3F
 (001.523070)  can0  18FEBF0B   [8]  FF FE FF FF FF FF FF FF
 (001.528290)  can0  0CF00400   [8]  F0 7D 7D 00 00 FF FF FF
 (001.528795)  can0  0CF00300   [8]  FF 00 00 FF FF FF FF FF
 (001.529529)  can0  18F00029   [8]  F0 7D FF FF FF FF FF FF
 (001.530106)  can0  18FEF200   [8]  00 00 00 00 10 05 FF FF
 (001.530677)  can0  18FEF100   [8]  FF 00 00 50 00 00 00 FF
 (001.542013)  can0  08FE6E0B   [8]  FF FE FF FE FF FE FF FE
 (001.542929)  can0  0CF00400   [8]  F0 7D 7D 00 00 FF FF FF
 (001.557798)  can0  0CF00400   [8]  F0 7D 7D 00 00 FF FF FF
 (001.561959)  can0  08FE6E0B   [8]  FF FE FF FE FF FE FF FE
 (001.572901)  can0  0CF00400   [8]  F0 7D 7D 00 00 FF FF FF
 (001.582023)  can0  08FE6E0B   [8]  FF FE FF FE FF FE FF FE
 (001.587739)  can0  0CF00400   [8]  F0 7D 7D 00 00 FF FF FF
 (001.588360)  can0  0CF00300   [8]  FF 00 00 FF FF FF FF FF
 (001.601936)  can0  08FE6E0B   [8]  FF FE FF FE FF FE FF FE
 (001.602744)  can0  0CF00400   [8]  F0 7D 7D 00 00 FF FF FF
 (001.617609)  can0  0CF00400   [8]  F0 7D 7D 00 00 FF FF FF
 (001.621986)  can0  08FE6E0B   [8]  FF FE FF FE FF FE FF FE
 (001.622461)  can0  18F0010B   [8]  C0 FF 33 FF FF 50 0B 3F
 (001.623073)  can0  18FEBF0B   [8]  FF FE FF FF FF FF FF FF
 (001.633202)  can0  0CF00400   [8]  F0 7D 7D 00 00 FF FF FF
 (001.633761)  can0  0CF00300   [8]  FF 00 00 FF FF FF FF FF
 (001.634407)  can0  18F00029   [8]  F0 7D FF FF FF FF FF FF
 (001.635023)  can0  18FEF200   [8]  00 00 00 00 10 05 FF FF
 (001.635642)  can0  18FEF100   [8]  FF 00 00 50 00 00 00 FF
 (001.642019)  can0  08FE6E0B   [8]  FF FE FF FE FF FE FF FE
 (001.647721)  can0  0CF00400   [8]  F0 7D 7D 00 00 FF FF FF
 (001.662009)  can0  08FE6E0B   [8]  FF FE FF FE FF FE FF FE
 (001.662635)  can0  0CF00400   [8]  F0 7D 7D 00 00 FF FF FF
 (001.677680)  can0  0CF00400   [8]  F0 7D 7D 00 00 FF FF FF
 (001.678095)  can0  0CF00300   [8]  FF 00 00 FF FF FF FF FF
 (001.682001)  can0  08FE6E0B   [8]  FF FE FF FE FF FE FF FE
 (001.692829)  can0  0CF00400   [8]  F0 7D 7D 00 00 FF FF FF
 (001.701900)  can0  08FE6E0B   [8]  FF FE FF FE FF FE FF FE
 (001.707523)  can0  0CF00400   [8]  F0 7D 7D 00 00 FF FF FF
 (001.721970)  can0  08FE6E0B   [8]  FF FE FF FE FF FE FF FE
 (001.722444)  can0  0CF00400   [8]  F0 7D 7D 00 00 FF FF FF
 (001.723072)  can0  18F0010B   [8]  C0 FF 33 FF FF 50 0B 3F
 (001.723640)  can0  18FEBF0B   [8]  FF FE FF FF FF FF FF FF
 (001.738014)  can0  0CF00400   [8]  F0 7D 7D 00 00 FF FF FF
 (001.738643)  can0  0CF00300   [8]  FF 00 00 FF FF FF FF FF
 (001.739258)  can0  18FEDF00   [8]  81 E0 15 FF FF FF FF FF
 (001.739894)  can0  18F00029   [8]  F0 7D FF FF FF FF FF FF
 (001.740395)  can0  18FEF200   [8]  00 00 00 00 10 05 FF FF
 (001.741004)  can0  18FEF600   [8]  FF 00 76 FF FF FF FF FF
 (001.741676)  can0  18FEDB00   [8]  80 11 FF FF FF FF FF FF
 (001.742403)  can0  08FE6E0B   [8]  FF FE FF FE FF FE FF FE
 (001.742851)  can0  18FEF100   [8]  FF 00 00 50 00 00 00 FF
 (001.743601)  can0  18FEEF00   [8]  FF FF FF 07 FF FF FF FF
 (001.752384)  can0  0CF00400   [8]  F0 7D 7D 00 00 FF FF FF
 (001.761928)  can0  08FE6E0B   [8]  FF FE FF FE FF FE FF FE
 (001.767483)  can0  0CF00400   [8]  F0 7D 7D 00 00 FF FF FF
 (001.781879)  can0  08FE6E0B   [8]  FF FE FF FE FF FE FF FE
 (001.782352)  can0  0CF00400   [8]  F0 7D 7D 00 00 FF FF FF
 (001.783068)  can0  0CF00300   [8]  FF 00 00 FF FF FF FF FF
 (001.797365)  can0  0CF00400   [8]  F0 7D 7D 00 00 FF FF FF
 (001.801981)  can0  08FE6E0B   [8]  FF FE FF FE FF FE FF FE
 (001.812576)  can0  0CF00400   [8]  F0 7D 7D 00 00 FF FF FF
 (001.821990)  can0  08FE6E0B   [8]  FF FE FF FE FF FE FF FE
 (001.822459)  can0  18F0010B   [8]  C0 FF 33 FF FF 50 0B 3F
 (001.823078)  can0  18FEBF0B   [8]  FF FE FF FF FF FF FF FF
 (001.827732)  can0  0CF00400   [8]  F0 7D 7D 00 00 FF FF FF
 (001.828314)  can0  0CF00300   [8]  FF 00 00 FF FF FF FF FF
 (001.828888)  can0  18F00029   [8]  F0 7D FF FF FF FF FF FF
 (001.829567)  can0  18FEF200   [8]  00 00 00 00 10 05 FF FF
 (001.830087)  can0  18FEF100   [8]  FF 00 00 50 00 00 00 FF
 (001.841954)  can0  08FE6E0B   [8]  FF FE FF FE FF FE FF FE
 (001.842520)  can0  0CF00400   [8]  F0 7D 7D 00 00 FF FF FF
 (001.857247)  can0  0CF00400   [8]  F0 7D 7D 00 00 FF FF FF
 (001.862011)  can0  08FE6E0B   [8]  FF FE FF FE FF FE FF FE
 (001.872435)  can0  0CF00400   [8]  F0 7D 7D 00 00 FF FF FF
 (001.874634)  can0  18ECFF0B   [8]  20 1A 00 04 FF CA FE 00
 (001.881986)  can0  08FE6E0B   [8]  FF FE FF FE FF FE FF FE
 (001.887297)  can0  0CF00400   [8]  F0 7D 7D 00 00 FF FF FF
 (001.887923)  can0  0CF00300   [8]  FF 00 00 FF FF FF FF FF
 (001.902022)  can0  08FE6E0B   [8]  FF FE FF FE FF FE FF FE
 (001.902398)  can0  0CF00400   [8]  F0 7D 7D 00 00 FF FF FF
 (001.917187)  can0  0CF00400   [8]  F0 7D 7D 00 00 FF FF FF
 (001.921959)  can0  08FE6E0B   [8]  FF FE FF FE FF FE FF FE
 (001.922355)  can0  18F0010B   [8]  C0 FF 33 FF FF 50 0B 3F
 (001.923106)  can0  18FEBF0B   [8]  FF FE FF FF FF FF FF FF
 (001.924437)  can0  18EBFF0B   [8]  01 04 FF 15 03 02 7E 16
 (001.932675)  can0  0CF00400   [8]  F0 7D 7D 00 00 FF FF FF
 (001.933326)  can0  0CF00300   [8]  FF 00 00 FF FF FF FF FF
 (001.933970)  can0  18F00029   [8]  F0 7D FF FF FF FF FF FF
 (001.934491)  can0  18FEF200   [8]  00 00 00 00 10 05 FF FF
 (001.935194)  can0  18FEF100   [8]  FF 00 00 50 00 00 00 FF
 (001.942022)  can0  08FE6E0B   [8]  FF FE FF FE FF FE FF FE
 (001.947130)  can0  0CF00400   [8]  F0 7D 7D 00 00 FF FF FF
 (001.962012)  can0  08FE6E0B   [8]  FF FE FF FE FF FE FF FE
 (001.962359)  can0  0CF00400   [8]  F0 7D 7D 00 00 FF FF FF
 (001.974479)  can0  18EBFF0B   [8]  02 03 02 7E 17 03 02 7E
 (001.977189)  can0  0CF00400   [8]  F0 7D 7D 00 00 FF FF FF
 (001.977650)  can0  0CF00300   [8]  FF 00 00 FF FF FF FF FF
 (001.978252)  can0  18FEDF00   [8]  81 E0 15 FF FF FF FF FF
