 (000.000000)  can0  18FEDF00   [8]  7D E0 2E 7D FB FF FF F0
 (000.002252)  can0  1CEBFF00   [8]  0B 66 00 04 02 43 05 03
 (000.004995)  can0  08FE6E0B   [8]  FF FE FF FE FF FE FF FE
 (000.005428)  can0  18FC4A00   [8]  F8 F3 01 00 D3 1F 1F FF
 (000.006182)  can0  18FDCA00   [8]  00 FF FF FF FF FF FF FF
 (000.006675)  can0  18F00F00   [8]  A0 0F FF FF EA 9F FF FF
 (000.010179)  can0  0CF00A00   [8]  00 00 00 00 FF FF FF FF
 (000.010686)  can0  18FEF200   [8]  00 00 00 FB 00 00 00 FF
 (000.011646)  can0  0CF00400   [8]  0E 7D 7D 00 00 00 00 7D
 (000.021037)  can0  18FEDF00   [8]  7D E0 2E 7D FB FF FF F0
 (000.024972)  can0  08FE6E0B   [8]  FF FE FF FE FF FE FF FE
 (000.025441)  can0  18FEF700   [8]  FF FF FF FF F4 00 FF FF
 (000.026167)  can0  18FDCB00   [8]  FD FF FF FF FF FF FF FF
 (000.030120)  can0  0CFD9200   [8]  F0 FF FF FF FF FF FF FF
 (000.030704)  can0  18F00E00   [8]  A0 0F FF FF EA 9F FF FF
 (000.031678)  can0  0CF00400   [8]  0E 7D 7D 00 00 00 00 7D
 (000.035142)  can0  0CF00300   [8]  DA FE 00 FF FF 0F 29 7D
 (000.035689)  can0  18F00100   [8]  FF FF FF FF FF FF FF FF
 (000.040126)  can0  18FEDF00   [8]  7D E0 2E 7D FB FF FF F0
 (000.044994)  can0  08FE6E0B   [8]  FF FE FF FE FF FE FF FE
 (000.045491)  can0  18F0010B   [8]  C0 FF 33 FF FF 50 0B 3F
 (000.046101)  can0  18FEF000   [8]  FF FF FF 00 00 FF 33 FF
 (000.046670)  can0  18FEBF0B   [8]  FF FE FF FF FF FF FF FF
 (000.051706)  can0  0CF00400   [8]  0E 7D 7D 00 00 00 00 7D
 (000.055098)  can0  18FEC100   [8]  00 00 00 00 00 00 00 00
 (000.055638)  can0  18F00F00   [8]  A0 0F FF FF EA 9F FF FF
 (000.056218)  can0  1CEBFF00   [8]  0C 02 79 02 1F 02 FF FF
 (000.060222)  can0  18FEDF00   [8]  7D E0 2E 7D FB FF FF F0
 (000.060710)  can0  0CF00A00   [8]  00 00 00 00 FF FF FF FF
 (000.064992)  can0  08FE6E0B   [8]  FF FE FF FE FF FE FF FE
 (000.065487)  can0  18FEF100   [8]  FC FF FF 0F FF FF E0 CF
 (000.070179)  can0  18FE5600   [8]  FE FE FF FF 1F 3F FE FF
 (000.071669)  can0  0CF00400   [8]  0E 7D 7D 00 00 00 00 7D
 (000.075095)  can0  18FEE000   [8]  00 00 00 00 00 00 00 00
 (000.080177)  can0  18FEDF00   [8]  7D E0 2E 7D FB FF FF F0
 (000.080687)  can0  18F00E00   [8]  A0 0F FF FF EA 9F FF FF
 (000.084994)  can0  08FE6E0B   [8]  FF FE FF FE FF FE FF FE
 (000.085471)  can0  0CF00300   [8]  DA FE 00 FF FF 0F 29 7D
 (000.090227)  can0  18FC9600   [8]  FF FE FF FF FF FF FF FF
 (000.091718)  can0  0CF00400   [8]  0E 7D 7D 00 00 00 00 7D
 (000.094997)  can0  18FD9B00   [8]  FF 00 FF FF FF F0 FF FF
 (000.100017)  can0  18FEDF00   [8]  7D E0 2E 7D FB FF FF F0
 (000.104844)  can0  08FE6E0B   [8]  FF FE FF FE FF FE FF FE
 (000.105438)  can0  18FC4A00   [8]  F8 F3 01 00 D3 1F 1F FF
 (000.106023)  can0  18F00F00   [8]  A0 0F FF FF EA 9F FF FF
 (000.110075)  can0  0CF00A00   [8]  00 00 00 00 FF FF FF FF
 (000.110651)  can0  18FEF200   [8]  00 00 00 FB 00 00 00 FF
 (000.111575)  can0  0CF00400   [8]  0E 7D 7D 00 00 00 00 7D
 (000.120082)  can0  18FEDF00   [8]  7D E0 2E 7D FB FF FF F0
 (000.124863)  can0  08FE6E0B   [8]  FF FE FF FE FF FE FF FE
 (000.130077)  can0  18F00E00   [8]  A0 0F FF FF EA 9F FF FF
 (000.131597)  can0  0CF00400   [8]  0E 7D 7D 00 00 00 00 7D
 (000.134949)  can0  0CF00300   [8]  DA FE 00 FF FF 0F 29 7D
 (000.135514)  can0  18F00100   [8]  FF FF FF FF FF FF FF FF
 (000.140049)  can0  18FEDF00   [8]  7D E0 2E 7D FB FF FF F0
 (000.144826)  can0  08FE6E0B   [8]  FF FE FF FE FF FE FF FE
 (000.145392)  can0  18F0010B   [8]  C0 FF 33 FF FF 50 0B 3F
 (000.145969)  can0  18FEF000   [8]  FF FF FF 00 00 FF 33 FF
 (000.146564)  can0  18FEBF0B   [8]  FF FE FF FF FF FF FF FF
 (000.151494)  can0  0CF00400   [8]  0E 7D 7D 00 00 00 00 7D
 (000.155037)  can0  18F00F00   [8]  A0 0F FF FF EA 9F FF FF
 (000.160002)  can0  18FEDF00   [8]  7D E0 2E 7D FB FF FF F0
 (000.160586)  can0  0CF00A00   [8]  00 00 00 00 FF FF FF FF
 (000.161165)  can0  18FEDD00   [8]  FF 00 00 FF FF FF FF FF
 (000.164874)  can0  08FE6E0B   [8]  FF FE FF FE FF FE FF FE
 (000.165471)  can0  18FEF100   [8]  FC FF FF 0F FF FF E0 CF
 (000.171584)  can0  0CF00400   [8]  0E 7D 7D 00 00 00 00 7D
 (000.175010)  can0  18FEE000   [8]  00 00 00 00 00 00 00 00
 (000.180290)  can0  18FEDF00   [8]  7D E0 2E 7D FB FF FF F0
 (000.180676)  can0  18F00E00   [8]  A0 0F FF FF EA 9F FF FF
 (000.185092)  can0  08FE6E0B   [8]  FF FE FF FE FF FE FF FE
 (000.185440)  can0  0CF00300   [8]  DA FE 00 FF FF 0F 29 7D
 (000.186253)  can0  18FEEE00   [8]  FE 28 FF FF FF FF FF FF
 (000.190256)  can0  18FC9600   [8]  FF FE FF FF FF FF FF FF
 (000.191743)  can0  0CF00400   [8]  0E 7D 7D 00 00 00 00 7D
 (000.200147)  can0  18FEDF00   [8]  7D E0 2E 7D FB FF FF F0
 (000.205004)  can0  08FE6E0B   [8]  FF FE FF FE FF FE FF FE
 (000.205451)  can0  18FC4A00   [8]  F8 F3 01 00 D3 1F 1F FF
 (000.206169)  can0  18FEE400   [8]  FF 3F FF FC 00 7F FF FF
 (000.206689)  can0  18F00F00   [8]  A0 0F FF FF EA 9F FF FF
 (000.210191)  can0  0CF00A00   [8]  00 00 00 00 FF FF FF FF
 (000.210744)  can0  18FEF200   [8]  00 00 00 FB 00 00 00 FF
 (000.211657)  can0  0CF00400   [8]  0E 7D 7D 00 00 00 00 7D
 (000.221178)  can0  18FEDF00   [8]  7D E0 2E 7D FB FF FF F0
 (000.225075)  can0  08FE6E0B   [8]  FF FE FF FE FF FE FF FE
 (000.230316)  can0  18FEBD00   [8]  00 F0 FF FF FF FF FF FF
 (000.230645)  can0  18F00E00   [8]  A0 0F FF FF EA 9F FF FF
 (000.231768)  can0  0CF00400   [8]  0E 7D 7D 00 00 00 00 7D
 (000.235231)  can0  0CF00300   [8]  DA FE 00 FF FF 0F 29 7D
 (000.235699)  can0  18F00100   [8]  FF FF FF FF FF FF FF FF
 (000.240243)  can0  18FEDF00   [8]  7D E0 2E 7D FB FF FF F0
 (000.245094)  can0  08FE6E0B   [8]  FF FE FF FE FF FE FF FE
 (000.245436)  can0  18F0010B   [8]  C0 FF 33 FF FF 50 0B 3F
 (000.246182)  can0  18FEF000   [8]  FF FF FF 00 00 FF 33 FF
 (000.246708)  can0  18FEBF0B   [8]  FF FE FF FF FF FF FF FF
 (000.251820)  can0  0CF00400   [8]  0E 7D 7D 00 00 00 00 7D
 (000.255202)  can0  18E0FF00   [8]  00 FF FF FF FF FF FF FF
 (000.255688)  can0  18F00F00   [8]  A0 0F FF FF EA 9F FF FF
 (000.260289)  can0  18FEDF00   [8]  7D E0 2E 7D FB FF FF F0
 (000.260654)  can0  0CF00A00   [8]  00 00 00 00 FF FF FF FF
 (000.264916)  can0  08FE6E0B   [8]  FF FE FF FE FF FE FF FE
 (000.265471)  can0  18FEF100   [8]  FC FF FF 0F FF FF E0 CF
 (000.271713)  can0  0CF00400   [8]  0E 7D 7D 00 00 00 00 7D
 (000.275205)  can0  18FEE000   [8]  00 00 00 00 00 00 00 00
 (000.275676)  can0  18FEF500   [8]  FF FF FF FF FF FF FF FF
 (000.280297)  can0  18FEDF00   [8]  7D E0 2E 7D FB FF FF F0
 (000.280613)  can0  0CFD9200   [8]  F0 FF FF FF FF FF FF FF
 (000.281390)  can0  18F00E00   [8]  A0 0F FF FF EA 9F FF FF
 (000.285103)  can0  08FE6E0B   [8]  FF FE FF FE FF FE FF FE
 (000.285583)  can0  0CF00300   [8]  DA FE 00 FF FF 0F 29 7D
 (000.290340)  can0  18FC9600   [8]  FF FE FF FF FF FF FF FF
 (000.291796)  can0  0CF00400   [8]  0E 7D 7D 00 00 00 00 7D
 (000.295275)  can0  18FEA400   [8]  FF FF B4 25 FF FF FF FE
 (000.300298)  can0  18FEDF00   [8]  7D E0 2E 7D FB FF FF F0
 (000.305027)  can0  08FE6E0B   [8]  FF FE FF FE FF FE FF FE
 (000.305543)  can0  18FD0700   [8]  17 0F FC FF FF FF FF FF
 (000.306279)  can0  18FC4A00   [8]  F8 F3 01 00 D3 1F 1F FF
 (000.306807)  can0  18F00F00   [8]  A0 0F FF FF EA 9F FF FF
 (000.310262)  can0  0CF00A00   [8]  00 00 00 00 FF FF FF FF
 (000.310791)  can0  18FEF200   [8]  00 00 00 FB 00 00 00 FF
 (000.311658)  can0  0CF00400   [8]  0E 7D 7D 00 00 00 00 7D
 (000.320328)  can0  18FEDF00   [8]  7D E0 2E 7D FB FF FF F0
 (000.320659)  can0  18FE9A00   [8]  FF FE FF FF FF FF FF FF
 (000.325085)  can0  08FE6E0B   [8]  FF FE FF FE FF FE FF FE
 (000.325545)  can0  18FD2000   [8]  20 22 FF FE FF FF FF FF
 (000.330286)  can0  18F00E00   [8]  A0 0F FF FF EA 9F FF FF
 (000.331826)  can0  0CF00400   [8]  0E 7D 7D 00 00 00 00 7D
 (000.335203)  can0  0CF00300   [8]  DA FE 00 FF FF 0F 29 7D
 (000.335675)  can0  18F00100   [8]  FF FF FF FF FF FF FF FF
 (000.340046)  can0  18FEDF00   [8]  7D E0 2E 7D FB FF FF F0
 (000.340595)  can0  18FE9900   [8]  FF FE FF FF FF FF FF FF
 (000.344814)  can0  08FE6E0B   [8]  FF FE FF FE FF FE FF FE
 (000.345399)  can0  18F0010B   [8]  C0 FF 33 FF FF 50 0B 3F
 (000.345961)  can0  14FD3E00   [8]  20 22 FF 20 22 FF FF FF
 (000.346550)  can0  18FEBF0B   [8]  FF FE FF FF FF FF FF FF
 (000.347184)  can0  18FEF000   [8]  FF FF FF 00 00 FF 33 FF
 (000.351528)  can0  0CF00400   [8]  0E 7D 7D 00 00 00 00 7D
 (000.355129)  can0  18F00F00   [8]  A0 0F FF FF EA 9F FF FF
 (000.360301)  can0  18FEDF00   [8]  7D E0 2E 7D FB FF FF F0
 (000.360666)  can0  0CF00A00   [8]  00 00 00 00 FF FF FF FF
 (000.365056)  can0  08FE6E0B   [8]  FF FE FF FE FF FE FF FE
 (000.365471)  can0  18FEF100   [8]  FC FF FF 0F FF FF E0 CF
 (000.366259)  can0  18FE6900   [8]  FF FF FF FF FF FF 40 25
 (000.370261)  can0  18FD4000   [8]  FF 3F 00 FF FF FF FF FF
 (000.371804)  can0  0CF00400   [8]  0E 7D 7D 00 00 00 00 7D
 (000.375225)  can0  18FEE000   [8]  00 00 00 00 00 00 00 00
 (000.380315)  can0  18FEDF00   [8]  7D E0 2E 7D FB FF FF F0
 (000.380614)  can0  18F00E00   [8]  A0 0F FF FF EA 9F FF FF
 (000.385105)  can0  08FE6E0B   [8]  FF FE FF FE FF FE FF FE
 (000.385502)  can0  0CF00300   [8]  DA FE 00 FF FF 0F 29 7D
 (000.386262)  can0  1885FF00   [8]  FF FF FF FF FF FF FF FF
 (000.390262)  can0  18FC9600   [8]  FF FE FF FF FF FF FF FF
 (000.390790)  can0  18FEEF00   [8]  FF FF FF 5D 06 7D FF FE
 (000.391707)  can0  0CF00400   [8]  0E 7D 7D 00 00 00 00 7D
 (000.400329)  can0  18FEDF00   [8]  7D E0 2E 7D FB FF FF F0
 (000.400631)  can0  1CECFF00   [8]  20 52 00 0C FF CA FE 00
 (000.401255)  can0  18FCD100   [8]  17 FF 00 00 00 00 FF FF
 (000.405080)  can0  08FE6E0B   [8]  FF FE FF FE FF FE FF FE
 (000.405488)  can0  18FC4A00   [8]  F8 F3 01 00 D3 1F 1F FF
 (000.406257)  can0  18F00F00   [8]  A0 0F FF FF EA 9F FF FF
 (000.410259)  can0  0CF00A00   [8]  00 00 00 00 FF FF FF FF
 (000.410747)  can0  18FEF200   [8]  00 00 00 FB 00 00 00 FF
 (000.411816)  can0  0CF00400   [8]  0E 7D 7D 00 00 00 00 7D
 (000.419461)  can0  18FEDB00   [8]  FF FF FF FE FF FF FF FF
 (000.421278)  can0  18FEDF00   [8]  7D E0 2E 7D FB FF FF F0
 (000.425103)  can0  08FE6E0B   [8]  FF FE FF FE FF FE FF FE
 (000.430283)  can0  18F00E00   [8]  A0 0F FF FF EA 9F FF FF
 (000.431771)  can0  0CF00400   [8]  0E 7D 7D 00 00 00 00 7D
 (000.435239)  can0  0CF00300   [8]  DA FE 00 FF FF 0F 29 7D
 (000.435699)  can0  18F00100   [8]  FF FF FF FF FF FF FF FF
 (000.436257)  can0  18FCEF00   [8]  FF FF FF FF A6 0E FF FF
 (000.440246)  can0  18FEDF00   [8]  7D E0 2E 7D FB FF FF F0
 (000.445115)  can0  08FE6E0B   [8]  FF FE FF FE FF FE FF FE
 (000.445425)  can0  18F0010B   [8]  C0 FF 33 FF FF 50 0B 3F
 (000.446178)  can0  18FEF000   [8]  FF FF FF 00 00 FF 33 FF
 (000.446710)  can0  18FEBF0B   [8]  FF FE FF FF FF FF FF FF
 (000.451815)  can0  0CF00400   [8]  0E 7D 7D 00 00 00 00 7D
 (000.452166)  can0  1CEBFF00   [8]  01 17 FF 12 15 05 01 21
 (000.455277)  can0  18FED500   [8]  FF FF FC FF FF FF FF FF
 (000.455744)  can0  18F00F00   [8]  A0 0F FF FF EA 9F FF FF
 (000.460296)  can0  18FEDF00   [8]  7D E0 2E 7D FB FF FF F0
 (000.460760)  can0  0CF00A00   [8]  00 00 00 00 FF FF FF FF
 (000.461285)  can0  18FEF600   [8]  FF FE FE FF FF FF FF FF
 (000.465078)  can0  08FE6E0B   [8]  FF FE FF FE FF FE FF FE
 (000.465531)  can0  18FEF100   [8]  FC FF FF 0F FF FF E0 CF
 (000.471757)  can0  0CF00400   [8]  0E 7D 7D 00 00 00 00 7D
 (000.475228)  can0  18FEE000   [8]  00 00 00 00 00 00 00 00
 (000.475606)  can0  18FC3E00   [8]  FF FF FF FF FF FF FF FF
 (000.480294)  can0  18FEDF00   [8]  7D E0 2E 7D FB FF FF F0
 (000.480657)  can0  18FDC600   [8]  FC 04 FF FF FF FF FF FF
 (000.481257)  can0  18F00E00   [8]  A0 0F FF FF EA 9F FF FF
 (000.485102)  can0  08FE6E0B   [8]  FF FE FF FE FF FE FF FE
 (000.485486)  can0  0CF00300   [8]  DA FE 00 FF FF 0F 29 7D
 (000.490256)  can0  18FC9600   [8]  FF FE FF FF FF FF FF FF
 (000.491804)  can0  0CF00400   [8]  0E 7D 7D 00 00 00 00 7D
 (000.500293)  can0  18FEDF00   [8]  7D E0 2E 7D FB FF FF F0
 (000.505064)  can0  08FE6E0B   [8]  FF FE FF FE FF FE FF FE
 (000.505565)  can0  18FC4A00   [8]  F8 F3 01 00 D3 1F 1F FF
 (000.506252)  can0  18FDCA00   [8]  00 FF FF FF FF FF FF FF
 (000.506654)  can0  18F00F00   [8]  A0 0F FF FF EA 9F FF FF
 (000.508048)  can0  1CEBFF00   [8]  02 0D 04 01 5B 00 04 02
 (000.510282)  can0  0CF00A00   [8]  00 00 00 00 FF FF FF FF
 (000.510779)  can0  18FEF200   [8]  00 00 00 FB 00 00 00 FF
 (000.511815)  can0  0CF00400   [8]  0E 7D 7D 00 00 00 00 7D
 (000.520301)  can0  18FEDF00   [8]  7D E0 2E 7D FB FF FF F0
 (000.524819)  can0  08FE6E0B   [8]  FF FE FF FE FF FE FF FE
 (000.525481)  can0  18FDCB00   [8]  FD FF FF FF FF FF FF FF
 (000.530112)  can0  0CFD9200   [8]  F0 FF FF FF FF FF FF FF
 (000.530684)  can0  18F00E00   [8]  A0 0F FF FF EA 9F FF FF
 (000.531679)  can0  0CF00400   [8]  0E 7D 7D 00 00 00 00 7D
 (000.535230)  can0  0CF00300   [8]  DA FE 00 FF FF 0F 29 7D
 (000.535701)  can0  18F00100   [8]  FF FF FF FF FF FF FF FF
 (000.540290)  can0  18FEDF00   [8]  7D E0 2E 7D FB FF FF F0
 (000.545090)  can0  08FE6E0B   [8]  FF FE FF FE FF FE FF FE
 (000.545425)  can0  18F0010B   [8]  C0 FF 33 FF FF 50 0B 3F
 (000.546264)  can0  18FEF000   [8]  FF FF FF 00 00 FF 33 FF
 (000.546607)  can0  18FEBF0B   [8]  FF FE FF FF FF FF FF FF
 (000.551731)  can0  0CF00400   [8]  0E 7D 7D 00 00 00 00 7D
 (000.555201)  can0  18F00F00   [8]  A0 0F FF FF EA 9F FF FF
 (000.560302)  can0  18FEDF00   [8]  7D E0 2E 7D FB FF FF F0
 (000.560682)  can0  0CF00A00   [8]  00 00 00 00 FF FF FF FF
 (000.562319)  can0  1CEBFF00   [8]  03 3F 0A 04 02 72 16 04
 (000.565081)  can0  08FE6E0B   [8]  FF FE FF FE FF FE FF FE
 (000.565521)  can0  18FEF100   [8]  FC FF FF 0F FF FF E0 CF
 (000.571788)  can0  0CF00400   [8]  0E 7D 7D 00 00 00 00 7D
 (000.575204)  can0  18FEE000   [8]  00 00 00 00 00 00 00 00
 (000.577796)  can0  18ECFF0B   [8]  20 1A 00 04 FF CA FE 00
 (000.580291)  can0  18FEDF00   [8]  7D E0 2E 7D FB FF FF F0
 (000.580661)  can0  18F00E00   [8]  A0 0F FF FF EA 9F FF FF
 (000.585102)  can0  08FE6E0B   [8]  FF FE FF FE FF FE FF FE
 (000.585590)  can0  0CF00300   [8]  DA FE 00 FF FF 0F 29 7D
 (000.590340)  can0  18FC9600   [8]  FF FE FF FF FF FF FF FF
 (000.591771)  can0  0CF00400   [8]  0E 7D 7D 00 00 00 00 7D
 (000.600299)  can0  18FEDF00   [8]  7D E0 2E 7D FB FF FF F0
 (000.605045)  can0  08FE6E0B   [8]  FF FE FF FE FF FE FF FE
 (000.605702)  can0  18F00F00   [8]  A0 0F FF FF EA 9F FF FF
 (000.610263)  can0  0CF00A00   [8]  00 00 00 00 FF FF FF FF
 (000.610678)  can0  18FEF200   [8]  00 00 00 FB 00 00 00 FF
 (000.611817)  can0  0CF00400   [8]  0E 7D 7D 00 00 00 00 7D
 (000.620368)  can0  1CEBFF00   [8]  04 02 18 11 03 02 73 15
 (000.620993)  can0  18FEDF00   [8]  7D E0 2E 7D FB FF FF F0
 (000.625101)  can0  08FE6E0B   [8]  FF FE FF FE FF FE FF FE
 (000.627569)  can0  18EBFF0B   [8]  01 04 FF 15 03 02 7E 16
 (000.630310)  can0  18F00E00   [8]  A0 0F FF FF EA 9F FF FF
 (000.631797)  can0  0CF00400   [8]  0E 7D 7D 00 00 00 00 7D
 (000.635282)  can0  0CF00300   [8]  DA FE 00 FF FF 0F 29 7D
 (000.635754)  can0  18F00100   [8]  FF FF FF FF FF FF FF FF
 (000.640315)  can0  18FEDF00   [8]  7D E0 2E 7D FB FF FF F0
 (000.645119)  can0  08FE6E0B   [8]  FF FE FF FE FF FE FF FE
 (000.645425)  can0  18F0010B   [8]  C0 FF 33 FF FF 50 0B 3F
 (000.646177)  can0  18FEF000   [8]  FF FF FF 00 00 FF 33 FF
 (000.646706)  can0  18FEBF0B   [8]  FF FE FF FF FF FF FF FF
 (000.651818)  can0  0CF00400   [8]  0E 7D 7D 00 00 00 00 7D
 (000.655281)  can0  18F00F00   [8]  A0 0F FF FF EA 9F FF FF
 (000.660296)  can0  18FEDF00   [8]  7D E0 2E 7D FB FF FF F0
 (000.660758)  can0  0CF00A00   [8]  00 00 00 00 FF FF FF FF
 (000.665065)  can0  08FE6E0B   [8]  FF FE FF FE FF FE FF FE
 (000.665706)  can0  18FEF100   [8]  FC FF FF 0F FF FF E0 CF
 (000.671794)  can0  0CF00400   [8]  0E 7D 7D 00 00 00 00 7D
 (000.672131)  can0  1CEBFF00   [8]  05 04 02 92 1A 1F 02 23
 (000.675227)  can0  18FEE000   [8]  00 00 00 00 00 00 00 00
 (000.677562)  can0  18EBFF0B   [8]  02 03 02 7E 17 03 02 7E
 (000.680289)  can0  18FEDF00   [8]  7D E0 2E 7D FB FF FF F0
 (000.680769)  can0  18F00E00   [8]  A0 0F FF FF EA 9F FF FF
 (000.685103)  can0  08FE6E0B   [8]  FF FE FF FE FF FE FF FE
 (000.685589)  can0  0CF00300   [8]  DA FE 00 FF FF 0F 29 7D
 (000.690332)  can0  18FC9600   [8]  FF FE FF FF FF FF FF FF
 (000.691819)  can0  0CF00400   [8]  0E 7D 7D 00 00 00 00 7D
 (000.700318)  can0  18FEDF00   [8]  7D E0 2E 7D FB FF FF F0
 (000.704895)  can0  08FE6E0B   [8]  FF FE FF FE FF FE FF FE
 (000.705658)  can0  18FC4A00   [8]  F8 F3 01 00 D3 1F 1F FF
 (000.706202)  can0  18F00F00   [8]  A0 0F FF FF EA 9F FF FF
 (000.710283)  can0  0CF00A00   [8]  00 00 00 00 FF FF FF FF
 (000.710802)  can0  18FEF200   [8]  00 00 00 FB 00 00 00 FF
 (000.711809)  can0  0CF00400   [8]  0E 7D 7D 00 00 00 00 7D
 (000.720289)  can0  18FD7C00   [8]  F8 83 01 00 D3 1F 03 FF
 (000.720661)  can0  18FEDF00   [8]  7D E0 2E 7D FB FF FF F0
 (000.725106)  can0  08FE6E0B   [8]  FF FE FF FE FF FE FF FE
 (000.727562)  can0  18EBFF0B   [8]  03 18 03 02 7E 22 03 04
 (000.727928)  can0  1CEBFF00   [8]  06 0D 03 02 F4 10 05 02
 (000.730336)  can0  18F00E00   [8]  A0 0F FF FF EA 9F FF FF
 (000.731878)  can0  0CF00400   [8]  0E 7D 7D 00 00 00 00 7D
 (000.735226)  can0  0CF00300   [8]  DA FE 00 FF FF 0F 29 7D
 (000.735695)  can0  18F00100   [8]  FF FF FF FF FF FF FF FF
 (000.740294)  can0  18FEDF00   [8]  7D E0 2E 7D FB FF FF F0
 (000.745078)  can0  08FE6E0B   [8]  FF FE FF FE FF FE FF FE
 (000.745565)  can0  18F0010B   [8]  C0 FF 33 FF FF 50 0B 3F
 (000.746173)  can0  18FEF000   [8]  FF FF FF 00 00 FF 33 FF
 (000.746699)  can0  18FEBF0B   [8]  FF FE FF FF FF FF FF FF
 (000.751788)  can0  0CF00400   [8]  0E 7D 7D 00 00 00 00 7D
 (000.755284)  can0  18F00F00   [8]  A0 0F FF FF EA 9F FF FF
 (000.760299)  can0  18FEDF00   [8]  7D E0 2E 7D FB FF FF F0
 (000.760761)  can0  0CF00A00   [8]  00 00 00 00 FF FF FF FF
 (000.764853)  can0  08FE6E0B   [8]  FF FE FF FE FF FE FF FE
 (000.765499)  can0  18FEF100   [8]  FC FF FF 0F FF FF E0 CF
 (000.771868)  can0  0CF00400   [8]  0E 7D 7D 00 00 00 00 7D
 (000.775253)  can0  18FEE000   [8]  00 00 00 00 00 00 00 00
 (000.777563)  can0  18EBFF0B   [8]  04 7E 18 03 07 01 FF FF
 (000.780317)  can0  18FEDF00   [8]  7D E0 2E 7D FB FF FF F0
 (000.780765)  can0  0CFD9200   [8]  F0 FF FF FF FF FF FF FF
 (000.781305)  can0  18F00E00   [8]  A0 0F FF FF EA 9F FF FF
 (000.782438)  can0  1CEBFF00   [8]  07 F6 10 05 02 F8 10 05
 (000.785087)  can0  08FE6E0B   [8]  FF FE FF FE FF FE FF FE
 (000.785503)  can0  0CF00300   [8]  DA FE 00 FF FF 0F 29 7D
 (000.790284)  can0  18FC9600   [8]  FF FE FF FF FF FF FF FF
 (000.791802)  can0  0CF00400   [8]  0E 7D 7D 00 00 00 00 7D
 (000.800308)  can0  18FEDF00   [8]  7D E0 2E 7D FB FF FF F0
 (000.805118)  can0  08FE6E0B   [8]  FF FE FF FE FF FE FF FE
 (000.805521)  can0  18FC4A00   [8]  F8 F3 01 00 D3 1F 1F FF
 (000.806248)  can0  18F00F00   [8]  A0 0F FF FF EA 9F FF FF
 (000.810285)  can0  0CF00A00   [8]  00 00 00 00 FF FF FF FF
 (000.810705)  can0  18FEF200   [8]  00 00 00 FB 00 00 00 FF
 (000.811839)  can0  0CF00400   [8]  0E 7D 7D 00 00 00 00 7D
 (000.821205)  can0  18FEDF00   [8]  7D E0 2E 7D FB FF FF F0
 (000.825103)  can0  08FE6E0B   [8]  FF FE FF FE FF FE FF FE
 (000.825539)  can0  18FD2000   [8]  20 22 FF FE FF FF FF FF
 (000.830307)  can0  18F00E00   [8]  A0 0F FF FF EA 9F FF FF
 (000.831797)  can0  0CF00400   [8]  0E 7D 7D 00 00 00 00 7D
 (000.835276)  can0  0CF00300   [8]  DA FE 00 FF FF 0F 29 7D
 (000.835774)  can0  18F00100   [8]  FF FF FF FF FF FF FF FF
 (000.836254)  can0  1CEBFF00   [8]  08 02 9D 00 03 01 C3 15
 (000.840293)  can0  18FEDF00   [8]  7D E0 2E 7D FB FF FF F0
 (000.845114)  can0  08FE6E0B   [8]  FF FE FF FE FF FE FF FE
 (000.845415)  can0  18F0010B   [8]  C0 FF 33 FF FF 50 0B 3F
 (000.846260)  can0  14FD3E00   [8]  20 22 FF 20 22 FF FF FF
 (000.846752)  can0  18FEBF0B   [8]  FF FE FF FF FF FF FF FF
 (000.847375)  can0  18FEF000   [8]  FF FF FF 00 00 FF 33 FF
 (000.851865)  can0  0CF00400   [8]  0E 7D 7D 00 00 00 00 7D
 (000.855308)  can0  18F00F00   [8]  A0 0F FF FF EA 9F FF FF
 (000.860312)  can0  18FEDF00   [8]  7D E0 2E 7D FB FF FF F0
 (000.860773)  can0  0CF00A00   [8]  00 00 00 00 FF FF FF FF
 (000.865038)  can0  08FE6E0B   [8]  FF FE FF FE FF FE FF FE
 (000.865704)  can0  18FEF100   [8]  FC FF FF 0F FF FF E0 CF
 (000.870336)  can0  18FD4000   [8]  FF 3F 00 FF FF FF FF FF
 (000.871797)  can0  0CF00400   [8]  0E 7D 7D 00 00 00 00 7D
 (000.875251)  can0  18FEE000   [8]  00 00 00 00 00 00 00 00
 (000.880314)  can0  18FEDF00   [8]  7D E0 2E 7D FB FF FF F0
 (000.880765)  can0  18F00E00   [8]  A0 0F FF FF EA 9F FF FF
 (000.885104)  can0  08FE6E0B   [8]  FF FE FF FE FF FE FF FE
 (000.885534)  can0  0CF00300   [8]  DA FE 00 FF FF 0F 29 7D
 (000.890364)  can0  18FC9600   [8]  FF FE FF FF FF FF FF FF
 (000.890705)  can0  18FEEF00   [8]  FF FF FF 5D 06 7D FF FE
 (000.891914)  can0  0CF00400   [8]  0E 7D 7D 00 00 00 00 7D
 (000.892478)  can0  1CEBFF00   [8]  09 00 01 C3 15 03 01 1B
 (000.900323)  can0  18FEDF00   [8]  7D E0 2E 7D FB FF FF F0
 (000.905097)  can0  08FE6E0B   [8]  FF FE FF FE FF FE FF FE
 (000.905504)  can0  18FC4A00   [8]  F8 F3 01 00 D3 1F 1F FF
 (000.906249)  can0  18F00F00   [8]  A0 0F FF FF EA 9F FF FF
 (000.910307)  can0  0CF00A00   [8]  00 00 00 00 FF FF FF FF
 (000.910801)  can0  18FEF200   [8]  00 00 00 FB 00 00 00 FF
 (000.911806)  can0  0CF00400   [8]  0E 7D 7D 00 00 00 00 7D
 (000.915278)  can0  18FEDB00   [8]  FF FF FF FE FF FF FF FF
 (000.920324)  can0  18FEDF00   [8]  7D E0 2E 7D FB FF FF F0
 (000.925114)  can0  08FE6E0B   [8]  FF FE FF FE FF FE FF FE
 (000.930343)  can0  18F00E00   [8]  A0 0F FF FF EA 9F FF FF
 (000.931870)  can0  0CF00400   [8]  0E 7D 7D 00 00 00 00 7D
 (000.935252)  can0  0CF00300   [8]  DA FE 00 FF FF 0F 29 7D
 (000.935701)  can0  18F00100   [8]  FF FF FF FF FF FF FF FF
 (000.936371)  can0  18FCEF00   [8]  FF FF FF FF A6 0E FF FF
 (000.940306)  can0  18FEDF00   [8]  7D E0 2E 7D FB FF FF F0
 (000.945103)  can0  08FE6E0B   [8]  FF FE FF FE FF FE FF FE
 (000.945414)  can0  18F0010B   [8]  C0 FF 33 FF FF 50 0B 3F
 (000.946263)  can0  18FEF000   [8]  FF FF FF 00 00 FF 33 FF
 (000.946699)  can0  18FEBF0B   [8]  FF FE FF FF FF FF FF FF
 (000.948022)  can0  1CEBFF00   [8]  0A 00 04 01 45 05 03 01
 (000.951789)  can0  0CF00400   [8]  0E 7D 7D 00 00 00 00 7D
 (000.955304)  can0  18F00F00   [8]  A0 0F FF FF EA 9F FF FF
 (000.960298)  can0  18FEDF00   [8]  7D E0 2E 7D FB FF FF F0
 (000.960719)  can0  0CF00A00   [8]  00 00 00 00 FF FF FF FF
 (000.961308)  can0  18FEF600   [8]  FF FE FE FF FF FF FF FF
 (000.965108)  can0  08FE6E0B   [8]  FF FE FF FE FF FE FF FE
 (000.965533)  can0  18FEF100   [8]  FC FF FF 0F FF FF E0 CF
 (000.971844)  can0  0CF00400   [8]  0E 7D 7D 00 00 00 00 7D
 (000.975246)  can0  18FEE000   [8]  00 00 00 00 00 00 00 00
 (000.980313)  can0  18FEDF00   [8]  7D E0 2E 7D FB FF FF F0
 (000.980767)  can0  18FDC600   [8]  FC 04 FF FF FF FF FF FF
 (000.981279)  can0  18F00E00   [8]  A0 0F FF FF EA 9F FF FF
 (000.985102)  can0  08FE6E0B   [8]  FF FE FF FE FF FE FF FE
 (000.985538)  can0  0CF00300   [8]  DA FE 00 FF FF 0F 29 7D
 (000.990360)  can0  18FC9600   [8]  FF FE FF FF FF FF FF FF
 (000.991821)  can0  0CF00400   [8]  0E 7D 7D 00 00 00 00 7D
 (001.000324)  can0  18FEDF00   [8]  7D E0 2E 7D FB FF FF F0
 (001.002380)  can0  1CEBFF00   [8]  0B 66 00 04 02 43 05 03
 (001.005095)  can0  08FE6E0B   [8]  FF FE FF FE FF FE FF FE
 (001.005499)  can0  18FC4A00   [8]  F8 F3 01 00 D3 1F 1F FF
 (001.006113)  can0  18FDCA00   [8]  00 FF FF FF FF FF FF FF
 (001.006851)  can0  18F00F00   [8]  A0 0F FF FF EA 9F FF FF
 (001.010323)  can0  0CF00A00   [8]  00 00 00 00 FF FF FF FF
 (001.010771)  can0  18FEF200   [8]  00 00 00 FB 00 00 00 FF
 (001.011810)  can0  0CF00400   [8]  0E 7D 7D 00 00 00 00 7D
 (001.021239)  can0  18FEDF00   [8]  7D E0 2E 7D FB FF FF F0
 (001.025103)  can0  08FE6E0B   [8]  FF FE FF FE FF FE FF FE
 (001.025649)  can0  18FEF700   [8]  FF FF FF FF F4 00 FF FF
 (001.026303)  can0  18FDCB00   [8]  FD FF FF FF FF FF FF FF
 (001.030331)  can0  0CFD9200   [8]  F0 FF FF FF FF FF FF FF
 (001.030770)  can0  18F00E00   [8]  A0 0F FF FF EA 9F FF FF
 (001.031840)  can0  0CF00400   [8]  0E 7D 7D 00 00 00 00 7D
 (001.035276)  can0  0CF00300   [8]  DA FE 00 FF FF 0F 29 7D
 (001.035782)  can0  18F00100   [8]  FF FF FF FF FF FF FF FF
 (001.040306)  can0  18FEDF00   [8]  7D E0 2E 7D FB FF FF F0
 (001.045129)  can0  08FE6E0B   [8]  FF FE FF FE FF FE FF FE
 (001.045413)  can0  18F0010B   [8]  C0 FF 33 FF FF 50 0B 3F
 (001.046260)  can0  18FEF000   [8]  FF FF FF 00 00 FF 33 FF
 (001.046724)  can0  18FEBF0B   [8]  FF FE FF FF FF FF FF FF
 (001.051836)  can0  0CF00400   [8]  0E 7D 7D 00 00 00 00 7D
 (001.055302)  can0  18FEC100   [8]  00 00 00 00 00 00 00 00
 (001.055618)  can0  18F00F00   [8]  A0 0F FF FF EA 9F FF FF
 (001.056384)  can0  1CEBFF00   [8]  0C 02 79 02 1F 02 FF FF
 (001.060330)  can0  18FEDF00   [8]  7D E0 2E 7D FB FF FF F0
