(1676937898.314919) can0 08FE6E0B#FFFEFFFEFFFEFFFE
(1676937898.318923) can0 0CF00400#F07DE10000FFFFFF
(1676937898.333986) can0 0CF00400#F07DE10000FFFFFF
(1676937898.334965) can0 08FE6E0B#FFFEFFFEFFFEFFFE
(1676937898.337348) can0 18EBFF0B#0104FF1503027E16
(1676937898.349057) can0 0CF00400#F07DE10000FFFFFF
(1676937898.354937) can0 08FE6E0B#FFFEFFFEFFFEFFFE
(1676937898.364246) can0 0CF00400#F07DE10000FFFFFF
(1676937898.364790) can0 0CF00300#FF0000FFFFFFFFFF
(1676937898.365451) can0 18FEDF00#8AE015FFFFFFFFFF
(1676937898.374878) can0 08FE6E0B#FFFEFFFEFFFEFFFE
(1676937898.379017) can0 0CF00400#F07DE10000FFFFFF
(1676937898.387437) can0 18EBFF0B#0203027E1703027E
(1676937898.393987) can0 0CF00400#F07DE10000FFFFFF
(1676937898.394886) can0 08FE6E0B#FFFEFFFEFFFEFFFE
(1676937898.395544) can0 18F0010B#C0FF33FFFF500B3F
(1676937898.396039) can0 18FEBF0B#FFFEFFFFFFFFFFFF
(1676937898.409284) can0 0CF00400#F07DE10000FFFFFF
(1676937898.409915) can0 0CF00300#FF0000FFFFFFFFFF
(1676937898.410531) can0 18F00029#F07DFFFFFFFFFFFF
(1676937898.411171) can0 18FEF200#000000001005FFFF
(1676937898.411751) can0 18FEF100#FF000050000000FF
(1676937898.414896) can0 08FE6E0B#FFFEFFFEFFFEFFFE
(1676937898.424072) can0 0CF00400#F07DE10000FFFFFF
(1676937898.434952) can0 08FE6E0B#FFFEFFFEFFFEFFFE
(1676937898.437360) can0 18EBFF0B#031803027E220304
(1676937898.438814) can0 0CF00400#F07DE10000FFFFFF
(1676937898.453838) can0 0CF00400#F07DE10000FFFFFF
(1676937898.454472) can0 0CF00300#FF0000FFFFFFFFFF
(1676937898.455016) can0 08FE6E0B#FFFEFFFEFFFEFFFE
(1676937898.468870) can0 0CF00400#F07DE10000FFFFFF
(1676937898.474999) can0 08FE6E0B#FFFEFFFEFFFEFFFE
(1676937898.483985) can0 0CF00400#F07DE10000FFFFFF
(1676937898.487465) can0 18EBFF0B#047E18030701FFFF
(1676937898.494976) can0 08FE6E0B#FFFEFFFEFFFEFFFE
(1676937898.495450) can0 18F0010B#C0FF33FFFF500B3F
(1676937898.496041) can0 18FEBF0B#FFFEFFFFFFFFFFFF
(1676937898.498737) can0 0CF00400#F07DE10000FFFFFF
(1676937898.514229) can0 0CF00400#F07DE10000FFFFFF
(1676937898.514693) can0 0CF00300#FF0000FFFFFFFFFF
(1676937898.515294) can0 08FE6E0B#FFFEFFFEFFFEFFFE
(1676937898.515846) can0 18F00029#F07DFFFFFFFFFFFF
(1676937898.516553) can0 18FEF200#000000001005FFFF
(1676937898.517151) can0 18FEF100#FF000050000000FF
(1676937898.528759) can0 0CF00400#F07DE10000FFFFFF
(1676937898.534929) can0 08FE6E0B#FFFEFFFEFFFEFFFE
(1676937898.543966) can0 0CF00400#F07DE10000FFFFFF
(1676937898.554868) can0 08FE6E0B#FFFEFFFEFFFEFFFE
(1676937898.558707) can0 0CF00400#F07DE10000FFFFFF
(1676937898.559253) can0 0CF00300#FF0000FFFFFFFFFF
(1676937898.573591) can0 0CF00400#F07DE10000FFFFFF
(1676937898.574998) can0 08FE6E0B#FFFEFFFEFFFEFFFE
(1676937898.588687) can0 0CF00400#F07DE10000FFFFFF
(1676937898.594959) can0 08FE6E0B#FFFEFFFEFFFEFFFE
(1676937898.595434) can0 18F0010B#C0FF33FFFF500B3F
(1676937898.595976) can0 18FEBF0B#FFFEFFFFFFFFFFFF
(1676937898.604398) can0 0CF00400#F07DE10000FFFFFF
(1676937898.604880) can0 0CF00300#FF0000FFFFFFFFFF
(1676937898.605476) can0 18FEDF00#8AE015FFFFFFFFFF
(1676937898.606105) can0 18F00029#F07DFFFFFFFFFFFF
(1676937898.606752) can0 18FEF200#000000001005FFFF
(1676937898.607443) can0 18FEF600#FF007DFFFFFFFFFF
(1676937898.608079) can0 18FEDB00#8011FFFFFFFFFFFF
(1676937898.608680) can0 18FEF100#FF000050000000FF
(1676937898.609378) can0 18FEEF00#FFFFFF96FFFFFFFF
(1676937898.615010) can0 08FE6E0B#FFFEFFFEFFFEFFFE
(1676937898.618557) can0 0CF00400#F07DE10000FFFFFF
(1676937898.633649) can0 0CF00400#F07DE10000FFFFFF
(1676937898.635004) can0 08FE6E0B#FFFEFFFEFFFEFFFE
(1676937898.648615) can0 0CF00400#F07DE10000FFFFFF
(1676937898.654980) can0 08FE6E0B#FFFEFFFEFFFEFFFE
(1676937898.663743) can0 0CF00400#F07DE10000FFFFFF
(1676937898.664259) can0 0CF00300#FF0000FFFFFFFFFF
(1676937898.674970) can0 08FE6E0B#FFFEFFFEFFFEFFFE
(1676937898.678338) can0 0CF00400#F07DE10000FFFFFF
(1676937898.693446) can0 0CF00400#F07DE10000FFFFFF
(1676937898.694886) can0 08FE6E0B#FFFEFFFEFFFEFFFE
(1676937898.695440) can0 18F0010B#C0FF33FFFF500B3F
(1676937898.696053) can0 18FEBF0B#FFFEFFFFFFFFFFFF
(1676937898.708784) can0 0CF00400#F07DE10000FFFFFF
(1676937898.709392) can0 0CF00300#FF0000FFFFFFFFFF
(1676937898.710041) can0 18F00029#F07DFFFFFFFFFFFF
(1676937898.710701) can0 18FEF200#000000001005FFFF
(1676937898.711226) can0 18FEF100#FF000050000000FF
(1676937898.714990) can0 08FE6E0B#FFFEFFFEFFFEFFFE
(1676937898.723504) can0 0CF00400#F07DE10000FFFFFF
(1676937898.734917) can0 08FE6E0B#FFFEFFFEFFFEFFFE
(1676937898.738340) can0 0CF00400#F07DE10000FFFFFF
(1676937898.753420) can0 0CF00400#F07DE10000FFFFFF
(1676937898.754040) can0 0CF00300#FF0000FFFFFFFFFF
(1676937898.755010) can0 08FE6E0B#FFFEFFFEFFFEFFFE
(1676937898.768399) can0 0CF00400#F07DE10000FFFFFF
(1676937898.774922) can0 08FE6E0B#FFFEFFFEFFFEFFFE
(1676937898.783493) can0 0CF00400#F07DE10000FFFFFF
(1676937898.795020) can0 08FE6E0B#FFFEFFFEFFFEFFFE
(1676937898.795444) can0 18F0010B#C0FF33FFFF500B3F
(1676937898.796011) can0 18FEBF0B#FFFEFFFFFFFFFFFF
(1676937898.798149) can0 0CF00400#F07DE10000FFFFFF
(1676937898.813817) can0 0CF00400#F07DE10000FFFFFF
(1676937898.814202) can0 0CF00300#FF0000FFFFFFFFFF
(1676937898.814927) can0 18F00029#F07DFFFFFFFFFFFF
(1676937898.815499) can0 08FE6E0B#FFFEFFFEFFFEFFFE
(1676937898.816086) can0 18FEF200#000000001005FFFF
(1676937898.816691) can0 18FEF100#FF000050000000FF
(1676937898.828229) can0 0CF00400#F07DE10000FFFFFF
(1676937898.835017) can0 08FE6E0B#FFFEFFFEFFFEFFFE
(1676937898.843388) can0 0CF00400#F07DE10000FFFFFF
(1676937898.854974) can0 08FE6E0B#FFFEFFFEFFFEFFFE
(1676937898.858311) can0 0CF00400#F07DE10000FFFFFF
(1676937898.858830) can0 0CF00300#FF0000FFFFFFFFFF
(1676937898.859431) can0 18FEDF00#8AE015FFFFFFFFFF
(1676937898.873184) can0 0CF00400#F07DE10000FFFFFF
(1676937898.875052) can0 08FE6E0B#FFFEFFFEFFFEFFFE
(1676937898.888208) can0 0CF00400#F07DE10000FFFFFF
(1676937898.894966) can0 08FE6E0B#FFFEFFFEFFFEFFFE
(1676937898.895437) can0 18F0010B#C0FF33FFFF500B3F
(1676937898.896122) can0 18FEBF0B#FFFEFFFFFFFFFFFF
(1676937898.903704) can0 0CF00400#F07DE10000FFFFFF
(1676937898.904218) can0 0CF00300#FF0000FFFFFFFFFF
(1676937898.904907) can0 18F00029#F07DFFFFFFFFFFFF
(1676937898.905565) can0 18FEF200#000000001005FFFF
(1676937898.906156) can0 18FEF100#FF000050000000FF
(1676937898.914990) can0 08FE6E0B#FFFEFFFEFFFEFFFE
(1676937898.918053) can0 0CF00400#F07DE10000FFFFFF
(1676937898.933179) can0 0CF00400#F07DE10000FFFFFF
(1676937898.934917) can0 08FE6E0B#FFFEFFFEFFFEFFFE
(1676937898.948032) can0 0CF00400#F07DE10000FFFFFF
(1676937898.955029) can0 08FE6E0B#FFFEFFFEFFFEFFFE
(1676937898.963279) can0 0CF00400#F07DE10000FFFFFF
(1676937898.963736) can0 0CF00300#FF0000FFFFFFFFFF
(1676937898.974979) can0 08FE6E0B#FFFEFFFEFFFEFFFE
(1676937898.978012) can0 0CF00400#F07DE10000FFFFFF
(1676937898.993025) can0 0CF00400#F07DE10000FFFFFF
(1676937898.994973) can0 08FE6E0B#FFFEFFFEFFFEFFFE
(1676937898.995435) can0 18F0010B#C0FF33FFFF500B3F
(1676937898.996108) can0 18FEBF0B#FFFEFFFFFFFFFFFF
(1676937899.008376) can0 0CF00400#F07DE10000FFFFFF
(1676937899.008942) can0 0CF00300#FF0000FFFFFFFFFF
(1676937899.009633) can0 18F00029#F07DFFFFFFFFFFFF
(1676937899.010153) can0 18FEF200#000000001005FFFF
(1676937899.010821) can0 18FEF100#FF000050000000FF
(1676937899.015070) can0 08FE6E0B#FFFEFFFEFFFEFFFE
(1676937899.023098) can0 0CF00400#F07DE10000FFFFFF
(1676937899.034936) can0 08FE6E0B#FFFEFFFEFFFEFFFE
(1676937899.037894) can0 0CF00400#F07DE10000FFFFFF
(1676937899.053004) can0 0CF00400#F07DE10000FFFFFF
(1676937899.053492) can0 0CF00300#FF0000FFFFFFFFFF
(1676937899.055038) can0 08FE6E0B#FFFEFFFEFFFEFFFE
(1676937899.067936) can0 0CF00400#F07DE10000FFFFFF
(1676937899.075048) can0 08FE6E0B#FFFEFFFEFFFEFFFE
(1676937899.083072) can0 0CF00400#F07DE10000FFFFFF
(1676937899.094912) can0 08FE6E0B#FFFEFFFEFFFEFFFE
(1676937899.095436) can0 18F0010B#C0FF33FFFF500B3F
(1676937899.096123) can0 18FEBF0B#FFFEFFFFFFFFFFFF
(1676937899.097841) can0 0CF00400#F07DE10000FFFFFF
(1676937899.113402) can0 0CF00400#F07DE10000FFFFFF
(1676937899.113930) can0 0CF00300#FF0000FFFFFFFFFF
(1676937899.114652) can0 18FEDF00#8AE015FFFFFFFFFF
(1676937899.115204) can0 08FE6E0B#FFFEFFFEFFFEFFFE
(1676937899.115838) can0 18F00029#F07DFFFFFFFFFFFF
(1676937899.116446) can0 18FEEE00#1EFFFFFFFFFFFFFF
(1676937899.117025) can0 18FEF200#000000001005FFFF
(1676937899.117665) can0 18FEF600#FF007DFFFFFFFFFF
(1676937899.118295) can0 18FEDB00#8011FFFFFFFFFFFF
(1676937899.118965) can0 18FEF100#FF000050000000FF
(1676937899.119571) can0 18FEEF00#FFFFFF96FFFFFFFF
(1676937899.127731) can0 0CF00400#F07DE10000FFFFFF
(1676937899.134949) can0 08FE6E0B#FFFEFFFEFFFEFFFE
(1676937899.142871) can0 0CF00400#F07DE10000FFFFFF
(1676937899.154921) can0 08FE6E0B#FFFEFFFEFFFEFFFE
(1676937899.157861) can0 0CF00400#F07DE10000FFFFFF
(1676937899.158248) can0 0CF00300#FF0000FFFFFFFFFF
(1676937899.172638) can0 0CF00400#F07DE10000FFFFFF
(1676937899.174920) can0 08FE6E0B#FFFEFFFEFFFEFFFE
(1676937899.187703) can0 0CF00400#F07DE10000FFFFFF
(1676937899.194977) can0 08FE6E0B#FFFEFFFEFFFEFFFE
(1676937899.195442) can0 18F0010B#C0FF33FFFF500B3F
(1676937899.196083) can0 18FEBF0B#FFFEFFFFFFFFFFFF
(1676937899.203229) can0 0CF00400#F07DE10000FFFFFF
(1676937899.203753) can0 0CF00300#FF0000FFFFFFFFFF
(1676937899.204357) can0 18F00029#F07DFFFFFFFFFFFF
(1676937899.205018) can0 18FEF200#000000001005FFFF
(1676937899.205680) can0 18FEF100#FF000050000000FF
(1676937899.214993) can0 08FE6E0B#FFFEFFFEFFFEFFFE
(1676937899.217557) can0 0CF00400#F07DE10000FFFFFF
(1676937899.232672) can0 0CF00400#F07DE10000FFFFFF
(1676937899.234935) can0 08FE6E0B#FFFEFFFEFFFEFFFE
(1676937899.247481) can0 0CF00400#F07DE10000FFFFFF
(1676937899.255047) can0 08FE6E0B#FFFEFFFEFFFEFFFE
(1676937899.262755) can0 0CF00400#F07DE10000FFFFFF
(1676937899.263315) can0 0CF00300#FF0000FFFFFFFFFF
(1676937899.275006) can0 08FE6E0B#FFFEFFFEFFFEFFFE
(1676937899.277477) can0 0CF00400#F07DE10000FFFFFF
(1676937899.287736) can0 18ECFF0B#201A0004FFCAFE00
(1676937899.292576) can0 0CF00400#F07DE10000FFFFFF
(1676937899.295048) can0 08FE6E0B#FFFEFFFEFFFEFFFE
(1676937899.295383) can0 18F0010B#C0FF33FFFF500B3F
(1676937899.295995) can0 18FEBF0B#FFFEFFFFFFFFFFFF
(1676937899.307931) can0 0CF00400#F07DE10000FFFFFF
(1676937899.308406) can0 0CF00300#FF0000FFFFFFFFFF
(1676937899.309027) can0 18F00029#F07DFFFFFFFFFFFF
(1676937899.309800) can0 18FEF200#000000001005FFFF
(1676937899.310319) can0 18FEF100#FF000050000000FF
(1676937899.314993) can0 08FE6E0B#FFFEFFFEFFFEFFFE
(1676937899.322541) can0 0CF00400#F07DE10000FFFFFF
(1676937899.334987) can0 08FE6E0B#FFFEFFFEFFFEFFFE
(1676937899.337349) can0 0CF00400#F07DE10000FFFFFF
(1676937899.337868) can0 18EBFF0B#0104FF1503027E16
(1676937899.352440) can0 0CF00400#F07DE10000FFFFFF
(1676937899.353069) can0 0CF00300#FF0000FFFFFFFFFF
(1676937899.353715) can0 18FEDF00#8AE015FFFFFFFFFF
(1676937899.354882) can0 08FE6E0B#FFFEFFFEFFFEFFFE
(1676937899.367367) can0 0CF00400#F07DE10000FFFFFF
(1676937899.375013) can0 08FE6E0B#FFFEFFFEFFFEFFFE
(1676937899.382556) can0 0CF00400#F07DE10000FFFFFF
(1676937899.387509) can0 18EBFF0B#0203027E1703027E
(1676937899.394882) can0 08FE6E0B#FFFEFFFEFFFEFFFE
(1676937899.395443) can0 18F0010B#C0FF33FFFF500B3F
(1676937899.396049) can0 18FEBF0B#FFFEFFFFFFFFFFFF
(1676937899.397426) can0 0CF00400#F07DE10000FFFFFF
(1676937899.412751) can0 0CF00400#F07DE10000FFFFFF
(1676937899.413251) can0 0CF00300#FF0000FFFFFFFFFF
(1676937899.413973) can0 18F00029#F07DFFFFFFFFFFFF
(1676937899.414627) can0 18FEF200#000000001005FFFF
(1676937899.415102) can0 08FE6E0B#FFFEFFFEFFFEFFFE
(1676937899.415730) can0 18FEF100#FF000050000000FF
(1676937899.427313) can0 0CF00400#F07DE10000FFFFFF
(1676937899.434993) can0 08FE6E0B#FFFEFFFEFFFEFFFE
(1676937899.437348) can0 18EBFF0B#031803027E220304
(1676937899.442423) can0 0CF00400#F07DE10000FFFFFF
(1676937899.455010) can0 08FE6E0B#FFFEFFFEFFFEFFFE
(1676937899.457203) can0 0CF00400#F07DE10000FFFFFF
(1676937899.457798) can0 0CF00300#FF0000FFFFFFFFFF
(1676937899.472268) can0 0CF00400#F07DE10000FFFFFF
(1676937899.474980) can0 08FE6E0B#FFFEFFFEFFFEFFFE
(1676937899.487216) can0 0CF00400#F07DE10000FFFFFF
(1676937899.487705) can0 18EBFF0B#047E18030701FFFF
(1676937899.494994) can0 08FE6E0B#FFFEFFFEFFFEFFFE
(1676937899.495451) can0 18F0010B#C0FF33FFFF500B3F
(1676937899.496069) can0 18FEBF0B#FFFEFFFFFFFFFFFF
(1676937899.502799) can0 0CF00400#F07DE10000FFFFFF
(1676937899.503397) can0 0CF00300#FF0000FFFFFFFFFF
(1676937899.504027) can0 18F00029#F07DFFFFFFFFFFFF
(1676937899.504658) can0 18FEF200#000000001005FFFF
(1676937899.505298) can0 18FEF100#FF000050000000FF
(1676937899.514979) can0 08FE6E0B#FFFEFFFEFFFEFFFE
(1676937899.516997) can0 0CF00400#F07DE10000FFFFFF
(1676937899.532159) can0 0CF00400#F07DE10000FFFFFF
(1676937899.535049) can0 08FE6E0B#FFFEFFFEFFFEFFFE
(1676937899.547155) can0 0CF00400#F07DE10000FFFFFF
(1676937899.555052) can0 08FE6E0B#FFFEFFFEFFFEFFFE
(1676937899.562281) can0 0CF00400#F07DE10000FFFFFF
(1676937899.562785) can0 0CF00300#FF0000FFFFFFFFFF
(1676937899.575045) can0 08FE6E0B#FFFEFFFEFFFEFFFE
(1676937899.576953) can0 0CF00400#F07DE10000FFFFFF
(1676937899.592036) can0 0CF00400#F07DE10000FFFFFF
(1676937899.594985) can0 08FE6E0B#FFFEFFFEFFFEFFFE
(1676937899.595496) can0 18F0010B#C0FF33FFFF500B3F
(1676937899.596079) can0 18FEBF0B#FFFEFFFFFFFFFFFF
(1676937899.607666) can0 0CF00400#F07DE10000FFFFFF
(1676937899.608160) can0 0CF00300#FF0000FFFFFFFFFF
(1676937899.608852) can0 18FEDF00#8AE015FFFFFFFFFF
(1676937899.609410) can0 18F00029#F07DFFFFFFFFFFFF
(1676937899.610063) can0 18FEF200#000000001005FFFF
(1676937899.610693) can0 18FEF600#FF007DFFFFFFFFFF
(1676937899.611361) can0 18FEDB00#8011FFFFFFFFFFFF
(1676937899.611960) can0 18FEF100#FF000050000000FF
(1676937899.612585) can0 18FEEF00#FFFFFF96FFFFFFFF
(1676937899.614910) can0 08FE6E0B#FFFEFFFEFFFEFFFE
(1676937899.622082) can0 0CF00400#F07DE10000FFFFFF
(1676937899.634993) can0 08FE6E0B#FFFEFFFEFFFEFFFE
(1676937899.636903) can0 0CF00400#F07DE10000FFFFFF
(1676937899.652001) can0 0CF00400#F07DE10000FFFFFF
(1676937899.652587) can0 0CF00300#FF0000FFFFFFFFFF
(1676937899.655020) can0 08FE6E0B#FFFEFFFEFFFEFFFE
(1676937899.666986) can0 0CF00400#F07DE10000FFFFFF
(1676937899.675002) can0 08FE6E0B#FFFEFFFEFFFEFFFE
(1676937899.682004) can0 0CF00400#F07DE10000FFFFFF
(1676937899.694989) can0 08FE6E0B#FFFEFFFEFFFEFFFE
(1676937899.695439) can0 18F0010B#C0FF33FFFF500B3F
(1676937899.696100) can0 18FEBF0B#FFFEFFFFFFFFFFFF
(1676937899.697176) can0 0CF00400#F07DE10000FFFFFF
(1676937899.712226) can0 0CF00400#F07DE10000FFFFFF
(1676937899.712787) can0 0CF00300#FF0000FFFFFFFFFF
(1676937899.713484) can0 18F00029#F07DFFFFFFFFFFFF
(1676937899.714099) can0 18FEF200#000000001005FFFF
(1676937899.714673) can0 18FEF100#FF000050000000FF
(1676937899.715286) can0 08FE6E0B#FFFEFFFEFFFEFFFE
(1676937899.726766) can0 0CF00400#F07DE10000FFFFFF
(1676937899.735037) can0 08FE6E0B#FFFEFFFEFFFEFFFE
(1676937899.742002) can0 0CF00400#F07DE10000FFFFFF
(1676937899.755030) can0 08FE6E0B#FFFEFFFEFFFEFFFE
(1676937899.756900) can0 0CF00400#F07DE10000FFFFFF
(1676937899.757450) can0 0CF00300#FF0000FFFFFFFFFF
(1676937899.771842) can0 0CF00400#F07DE10000FFFFFF
(1676937899.775001) can0 08FE6E0B#FFFEFFFEFFFEFFFE
(1676937899.786716) can0 0CF00400#F07DE10000FFFFFF
(1676937899.795004) can0 08FE6E0B#FFFEFFFEFFFEFFFE
(1676937899.795466) can0 18F0010B#C0FF33FFFF500B3F
(1676937899.796103) can0 18FEBF0B#FFFEFFFFFFFFFFFF
(1676937899.802172) can0 0CF00400#F07DE10000FFFFFF
(1676937899.802746) can0 0CF00300#FF0000FFFFFFFFFF
(1676937899.803356) can0 18F00029#F07DFFFFFFFFFFFF
(1676937899.804048) can0 18FEF200#000000001005FFFF
(1676937899.804724) can0 18FEF100#FF000050000000FF
(1676937899.814935) can0 08FE6E0B#FFFEFFFEFFFEFFFE
(1676937899.816709) can0 0CF00400#F07DE10000FFFFFF
(1676937899.831684) can0 0CF00400#F07DE10000FFFFFF
(1676937899.834979) can0 08FE6E0B#FFFEFFFEFFFEFFFE
(1676937899.846720) can0 0CF00400#F07DE10000FFFFFF
(1676937899.855015) can0 08FE6E0B#FFFEFFFEFFFEFFFE
(1676937899.861841) can0 0CF00400#F07DE10000FFFFFF
(1676937899.862390) can0 0CF00300#FF0000FFFFFFFFFF
(1676937899.863005) can0 18FEDF00#8AE015FFFFFFFFFF
(1676937899.874944) can0 08FE6E0B#FFFEFFFEFFFEFFFE
(1676937899.876692) can0 0CF00400#F07DE10000FFFFFF
(1676937899.891589) can0 0CF00400#F07DE10000FFFFFF
(1676937899.894946) can0 08FE6E0B#FFFEFFFEFFFEFFFE
(1676937899.895492) can0 18F0010B#C0FF33FFFF500B3F
(1676937899.896034) can0 18FEBF0B#FFFEFFFFFFFFFFFF
(1676937899.906902) can0 0CF00400#F07DE10000FFFFFF
(1676937899.907475) can0 0CF00300#FF0000FFFFFFFFFF
(1676937899.908157) can0 18F00029#F07DFFFFFFFFFFFF
(1676937899.908763) can0 18FEF200#000000001005FFFF
(1676937899.909371) can0 18FEF100#FF000050000000FF
(1676937899.914941) can0 08FE6E0B#FFFEFFFEFFFEFFFE
(1676937899.921642) can0 0CF00400#F07DE10000FFFFFF
(1676937899.935036) can0 08FE6E0B#FFFEFFFEFFFEFFFE
(1676937899.936518) can0 0CF00400#F07DE10000FFFFFF
(1676937899.951545) can0 0CF00400#F07DE10000FFFFFF
(1676937899.952023) can0 0CF00300#FF0000FFFFFFFFFF
(1676937899.955051) can0 08FE6E0B#FFFEFFFEFFFEFFFE
(1676937899.966423) can0 0CF00400#F07DE10000FFFFFF
(1676937899.975027) can0 08FE6E0B#FFFEFFFEFFFEFFFE
(1676937899.981707) can0 0CF00400#F07DE10000FFFFFF
(1676937899.995014) can0 08FE6E0B#FFFEFFFEFFFEFFFE
(1676937899.995452) can0 18F0010B#C0FF33FFFF500B3F
(1676937899.996093) can0 18FEBF0B#FFFEFFFFFFFFFFFF
(1676937899.996722) can0 0CF00400#F07DE10000FFFFFF
(1676937900.011765) can0 0CF00400#F07DE10000FFFFFF
(1676937900.012355) can0 0CF00300#FF0000FFFFFFFFFF
(1676937900.012899) can0 18F00029#F07DFFFFFFFFFFFF
(1676937900.013592) can0 18FEF200#000000001005FFFF
(1676937900.014206) can0 18FEF100#FF000050000000FF
(1676937900.015010) can0 08FE6E0B#FFFEFFFEFFFEFFFE
(1676937900.026222) can0 0CF00400#F07DE10000FFFFFF
(1676937900.035034) can0 08FE6E0B#FFFEFFFEFFFEFFFE
(1676937900.041415) can0 0CF00400#F07DE10000FFFFFF
(1676937900.055033) can0 08FE6E0B#FFFEFFFEFFFEFFFE
(1676937900.056438) can0 0CF00400#F07DE10000FFFFFF
(1676937900.056972) can0 0CF00300#FF0000FFFFFFFFFF
(1676937900.071345) can0 0CF00400#F07DE10000FFFFFF
(1676937900.075091) can0 08FE6E0B#FFFEFFFEFFFEFFFE
(1676937900.086226) can0 0CF00400#F07DE10000FFFFFF
(1676937900.094970) can0 08FE6E0B#FFFEFFFEFFFEFFFE
(1676937900.095467) can0 18F0010B#C0FF33FFFF500B3F
(1676937900.096140) can0 18FEBF0B#FFFEFFFFFFFFFFFF
(1676937900.101952) can0 0CF00400#F07DE10000FFFFFF
(1676937900.102609) can0 0CF00300#FF0000FFFFFFFFFF
(1676937900.103219) can0 18FEDF00#8AE015FFFFFFFFFF
(1676937900.103877) can0 18F00029#F07DFFFFFFFFFFFF
(1676937900.104487) can0 18FEEE00#1EFFFFFFFFFFFFFF
(1676937900.105075) can0 18FEF200#000000001005FFFF
(1676937900.105694) can0 18FEF600#FF007DFFFFFFFFFF
(1676937900.106369) can0 18FEDB00#8011FFFFFFFFFFFF
(1676937900.106940) can0 18FEF100#FF000050000000FF
(1676937900.107597) can0 18FEEF00#FFFFFF96FFFFFFFF
(1676937900.114928) can0 08FE6E0B#FFFEFFFEFFFEFFFE
(1676937900.116135) can0 0CF00400#F07DE10000FFFFFF
(1676937900.131244) can0 0CF00400#F07DE10000FFFFFF
(1676937900.135063) can0 08FE6E0B#FFFEFFFEFFFEFFFE
(1676937900.146181) can0 0CF00400#F07DE10000FFFFFF
(1676937900.155018) can0 08FE6E0B#FFFEFFFEFFFEFFFE
(1676937900.161291) can0 0CF00400#F07DE10000FFFFFF
(1676937900.161833) can0 0CF00300#FF0000FFFFFFFFFF
(1676937900.175031) can0 08FE6E0B#FFFEFFFEFFFEFFFE
(1676937900.176193) can0 0CF00400#F07DE10000FFFFFF
(1676937900.191132) can0 0CF00400#F07DE10000FFFFFF
(1676937900.195018) can0 08FE6E0B#FFFEFFFEFFFEFFFE
(1676937900.195480) can0 18F0010B#C0FF33FFFF500B3F
(1676937900.196135) can0 18FEBF0B#FFFEFFFFFFFFFFFF
(1676937900.206495) can0 0CF00400#F07DE10000FFFFFF
(1676937900.206966) can0 0CF00300#FF0000FFFFFFFFFF
(1676937900.207668) can0 18F00029#F07DFFFFFFFFFFFF
(1676937900.208203) can0 18FEF200#000000001005FFFF
(1676937900.208974) can0 18FEF100#FF000050000000FF
(1676937900.215010) can0 08FE6E0B#FFFEFFFEFFFEFFFE
(1676937900.221136) can0 0CF00400#F07DE10000FFFFFF
(1676937900.235081) can0 08FE6E0B#FFFEFFFEFFFEFFFE
(1676937900.236046) can0 0CF00400#F07DE10000FFFFFF
(1676937900.251067) can0 0CF00400#F07DE10000FFFFFF
(1676937900.251569) can0 0CF00300#FF0000FFFFFFFFFF
(1676937900.255013) can0 08FE6E0B#FFFEFFFEFFFEFFFE
(1676937900.265941) can0 0CF00400#F07DE10000FFFFFF
(1676937900.275072) can0 08FE6E0B#FFFEFFFEFFFEFFFE
(1676937900.281131) can0 0CF00400#F07DE10000FFFFFF
(1676937900.287774) can0 18ECFF0B#201A0004FFCAFE00
(1676937900.295075) can0 08FE6E0B#FFFEFFFEFFFEFFFE
(1676937900.295497) can0 18F0010B#C0FF33FFFF500B3F
(1676937900.296086) can0 0CF00400#F07DE10000FFFFFF
(1676937900.296660) can0 18FEBF0B#FFFEFFFFFFFFFFFF
(1676937900.311274) can0 0CF00400#F07DE10000FFFFFF
(1676937900.311897) can0 0CF00300#FF0000FFFFFFFFFF
(1676937900.312502) can0 18F00029#F07DFFFFFFFFFFFF
(1676937900.313092) can0 18FEF200#000000001005FFFF
(1676937900.313786) can0 18FEF100#FF000050000000FF
(1676937900.315112) can0 08FE6E0B#FFFEFFFEFFFEFFFE
(1676937900.325845) can0 0CF00400#F07DE10000FFFFFF
(1676937900.335010) can0 08FE6E0B#FFFEFFFEFFFEFFFE
(1676937900.337385) can0 18EBFF0B#0104FF1503027E16
(1676937900.340990) can0 0CF00400#F07DE10000FFFFFF
(1676937900.355018) can0 08FE6E0B#FFFEFFFEFFFEFFFE
(1676937900.355984) can0 0CF00400#F07DE10000FFFFFF
(1676937900.356634) can0 0CF00300#FF0000FFFFFFFFFF
(1676937900.357154) can0 18FEDF00#8AE015FFFFFFFFFF
(1676937900.370809) can0 0CF00400#F07DE10000FFFFFF
(1676937900.375006) can0 08FE6E0B#FFFEFFFEFFFEFFFE
(1676937900.385637) can0 0CF00400#F07DE10000FFFFFF
(1676937900.387542) can0 18EBFF0B#0203027E1703027E
(1676937900.394953) can0 08FE6E0B#FFFEFFFEFFFEFFFE
(1676937900.395533) can0 18F0010B#C0FF33FFFF500B3F
(1676937900.396094) can0 18FEBF0B#FFFEFFFFFFFFFFFF
(1676937900.401223) can0 0CF00400#F07DE10000FFFFFF
(1676937900.401833) can0 0CF00300#FF0000FFFFFFFFFF
(1676937900.402485) can0 18F00029#F07DFFFFFFFFFFFF
(1676937900.403091) can0 18FEF200#000000001005FFFF
(1676937900.403717) can0 18FEF100#FF000050000000FF
(1676937900.415045) can0 08FE6E0B#FFFEFFFEFFFEFFFE
(1676937900.415757) can0 0CF00400#F07DE10000FFFFFF
(1676937900.430725) can0 0CF00400#F07DE10000FFFFFF
(1676937900.435038) can0 08FE6E0B#FFFEFFFEFFFEFFFE
(1676937900.437463) can0 18EBFF0B#031803027E220304
(1676937900.445642) can0 0CF00400#F07DE10000FFFFFF
(1676937900.455035) can0 08FE6E0B#FFFEFFFEFFFEFFFE
(1676937900.460938) can0 0CF00400#F07DE10000FFFFFF
(1676937900.461447) can0 0CF00300#FF0000FFFFFFFFFF
(1676937900.475030) can0 08FE6E0B#FFFEFFFEFFFEFFFE
(1676937900.475500) can0 0CF00400#F07DE10000FFFFFF
(1676937900.487543) can0 18EBFF0B#047E18030701FFFF
(1676937900.490651) can0 0CF00400#F07DE10000FFFFFF
(1676937900.495085) can0 08FE6E0B#FFFEFFFEFFFEFFFE
(1676937900.495477) can0 18F0010B#C0FF33FFFF500B3F
(1676937900.496074) can0 18FEBF0B#FFFEFFFFFFFFFFFF
(1676937900.505859) can0 0CF00400#F07DE10000FFFFFF
(1676937900.506474) can0 0CF00300#FF0000FFFFFFFFFF
(1676937900.507147) can0 18F00029#F07DFFFFFFFFFFFF
(1676937900.507798) can0 18FEF200#000000001005FFFF
(1676937900.508375) can0 18FEF100#FF000050000000FF
(1676937900.514974) can0 08FE6E0B#FFFEFFFEFFFEFFFE
(1676937900.520711) can0 0CF00400#F07DE10000FFFFFF
(1676937900.535077) can0 08FE6E0B#FFFEFFFEFFFEFFFE
(1676937900.535511) can0 0CF00400#F07DE10000FFFFFF
(1676937900.550546) can0 0CF00400#F07DE10000FFFFFF
(1676937900.551116) can0 0CF00300#FF0000FFFFFFFFFF
(1676937900.555052) can0 08FE6E0B#FFFEFFFEFFFEFFFE
(1676937900.565415) can0 0CF00400#F07DE10000FFFFFF
(1676937900.574983) can0 08FE6E0B#FFFEFFFEFFFEFFFE
(1676937900.580615) can0 0CF00400#F07DE10000FFFFFF
(1676937900.595004) can0 08FE6E0B#FFFEFFFEFFFEFFFE
(1676937900.595475) can0 0CF00400#F07DE10000FFFFFF
(1676937900.596037) can0 18F0010B#C0FF33FFFF500B3F
(1676937900.596662) can0 18FEBF0B#FFFEFFFFFFFFFFFF
(1676937900.610903) can0 0CF00400#F07DE10000FFFFFF
(1676937900.611650) can0 0CF00300#FF0000FFFFFFFFFF
(1676937900.612181) can0 18FEDF00#8AE015FFFFFFFFFF
(1676937900.612795) can0 18F00029#F07DFFFFFFFFFFFF
(1676937900.613490) can0 18FEF200#000000001005FFFF
(1676937900.614096) can0 18FEF600#FF007DFFFFFFFFFF
(1676937900.614767) can0 18FEDB00#8011FFFFFFFFFFFF
(1676937900.615317) can0 08FE6E0B#FFFEFFFEFFFEFFFE
(1676937900.615876) can0 18FEF100#FF000050000000FF
(1676937900.616470) can0 18FEEF00#FFFFFF96FFFFFFFF
(1676937900.625265) can0 0CF00400#F07DE10000FFFFFF
(1676937900.634967) can0 08FE6E0B#FFFEFFFEFFFEFFFE
(1676937900.640434) can0 0CF00400#F07DE10000FFFFFF
(1676937900.654922) can0 08FE6E0B#FFFEFFFEFFFEFFFE
(1676937900.655482) can0 0CF00400#F07DE10000FFFFFF
(1676937900.656086) can0 0CF00300#FF0000FFFFFFFFFF
(1676937900.670264) can0 0CF00400#F07DE10000FFFFFF
(1676937900.675036) can0 08FE6E0B#FFFEFFFEFFFEFFFE
(1676937900.685300) can0 0CF00400#F07DE10000FFFFFF
(1676937900.695042) can0 08FE6E0B#FFFEFFFEFFFEFFFE
(1676937900.695421) can0 18F0010B#C0FF33FFFF500B3F
(1676937900.696007) can0 18FEBF0B#FFFEFFFFFFFFFFFF
(1676937900.700701) can0 0CF00400#F07DE10000FFFFFF
(1676937900.701326) can0 0CF00300#FF0000FFFFFFFFFF
(1676937900.702009) can0 18F00029#F07DFFFFFFFFFFFF
(1676937900.702572) can0 18FEF200#000000001005FFFF
(1676937900.703216) can0 18FEF100#FF000050000000FF
(1676937900.714985) can0 08FE6E0B#FFFEFFFEFFFEFFFE
(1676937900.715419) can0 0CF00400#F07DE10000FFFFFF
(1676937900.730184) can0 0CF00400#F07DE10000FFFFFF
(1676937900.735031) can0 08FE6E0B#FFFEFFFEFFFEFFFE
(1676937900.745192) can0 0CF00400#F07DE10000FFFFFF
(1676937900.755005) can0 08FE6E0B#FFFEFFFEFFFEFFFE
(1676937900.760382) can0 0CF00400#F07DE10000FFFFFF
(1676937900.760794) can0 0CF00300#FF0000FFFFFFFFFF
(1676937900.775080) can0 08FE6E0B#FFFEFFFEFFFEFFFE
(1676937900.775493) can0 0CF00400#F07DE10000FFFFFF
(1676937900.790124) can0 0CF00400#F07DE10000FFFFFF
(1676937900.795060) can0 08FE6E0B#FFFEFFFEFFFEFFFE
(1676937900.795481) can0 18F0010B#C0FF33FFFF500B3F
(1676937900.796148) can0 18FEBF0B#FFFEFFFFFFFFFFFF
(1676937900.805304) can0 0CF00400#F07DE10000FFFFFF
(1676937900.805973) can0 0CF00300#FF0000FFFFFFFFFF
(1676937900.806619) can0 18F00029#F07DFFFFFFFFFFFF
(1676937900.807294) can0 18FEF200#000000001005FFFF
(1676937900.807829) can0 18FEF100#FF000050000000FF
(1676937900.814946) can0 08FE6E0B#FFFEFFFEFFFEFFFE
(1676937900.820057) can0 0CF00400#F07DE10000FFFFFF
(1676937900.834851) can0 0CF00400#F07DE10000FFFFFF
(1676937900.835401) can0 08FE6E0B#FFFEFFFEFFFEFFFE
(1676937900.850014) can0 0CF00400#F07DE10000FFFFFF
(1676937900.850606) can0 0CF00300#FF0000FFFFFFFFFF
(1676937900.851249) can0 18FEDF00#8AE015FFFFFFFFFF
(1676937900.855074) can0 08FE6E0B#FFFEFFFEFFFEFFFE
(1676937900.864956) can0 0CF00400#F07DE10000FFFFFF
(1676937900.875031) can0 08FE6E0B#FFFEFFFEFFFEFFFE
(1676937900.880046) can0 0CF00400#F07DE10000FFFFFF
(1676937900.894965) can0 0CF00400#F07DE10000FFFFFF
(1676937900.895335) can0 08FE6E0B#FFFEFFFEFFFEFFFE
(1676937900.895885) can0 18F0010B#C0FF33FFFF500B3F
(1676937900.896584) can0 18FEBF0B#FFFEFFFFFFFFFFFF
(1676937900.910351) can0 0CF00400#F07DE10000FFFFFF
(1676937900.910896) can0 0CF00300#FF0000FFFFFFFFFF
(1676937900.911501) can0 18F00029#F07DFFFFFFFFFFFF
(1676937900.912174) can0 18FEF200#000000001005FFFF
(1676937900.912800) can0 18FEF100#FF000050000000FF
(1676937900.915037) can0 08FE6E0B#FFFEFFFEFFFEFFFE
(1676937900.924804) can0 0CF00400#F07DE10000FFFFFF
(1676937900.935028) can0 08FE6E0B#FFFEFFFEFFFEFFFE
(1676937900.940123) can0 0CF00400#F07DE10000FFFFFF
(1676937900.954745) can0 0CF00400#F07DE10000FFFFFF
(1676937900.955352) can0 08FE6E0B#FFFEFFFEFFFEFFFE
(1676937900.955903) can0 0CF00300#FF0000FFFFFFFFFF
(1676937900.969823) can0 0CF00400#F07DE10000FFFFFF
(1676937900.974990) can0 08FE6E0B#FFFEFFFEFFFEFFFE
(1676937900.984716) can0 0CF00400#F07DE10000FFFFFF
(1676937900.995100) can0 08FE6E0B#FFFEFFFEFFFEFFFE
(1676937900.995502) can0 18F0010B#C0FF33FFFF500B3F
(1676937900.996186) can0 18FEBF0B#FFFEFFFFFFFFFFFF
(1676937901.000277) can0 0CF00400#F07DE10000FFFFFF
(1676937901.000785) can0 0CF00300#FF0000FFFFFFFFFF
(1676937901.001485) can0 18F00029#F07DFFFFFFFFFFFF
(1676937901.002142) can0 18FEF200#000000001005FFFF
(1676937901.002753) can0 18FEF100#FF000050000000FF
(1676937901.014689) can0 0CF00400#F07DE10000FFFFFF
(1676937901.015168) can0 08FE6E0B#FFFEFFFEFFFEFFFE
(1676937901.029703) can0 0CF00400#F07DE10000FFFFFF
(1676937901.035048) can0 08FE6E0B#FFFEFFFEFFFEFFFE
(1676937901.044600) can0 0CF00400#F07DE10000FFFFFF
(1676937901.054973) can0 08FE6E0B#FFFEFFFEFFFEFFFE
(1676937901.059851) can0 0CF00400#F07DE10000FFFFFF
(1676937901.060418) can0 0CF00300#FF0000FFFFFFFFFF
(1676937901.074679) can0 0CF00400#F07DE10000FFFFFF
(1676937901.075102) can0 08FE6E0B#FFFEFFFEFFFEFFFE
(1676937901.089728) can0 0CF00400#F07DE10000FFFFFF
(1676937901.095065) can0 08FE6E0B#FFFEFFFEFFFEFFFE
(1676937901.095507) can0 18F0010B#C0FF33FFFF500B3F
(1676937901.096159) can0 18FEBF0B#FFFEFFFFFFFFFFFF
(1676937901.104879) can0 18ECFF00#201C0004FFE3FE00
(1676937901.105340) can0 0CF00400#F07DE10000FFFFFF
(1676937901.105934) can0 0CF00300#FF0000FFFFFFFFFF
(1676937901.106571) can0 18FEDF00#8AE015FFFFFFFFFF
(1676937901.107200) can0 18F00029#F07DFFFFFFFFFFFF
(1676937901.107838) can0 18FEEE00#1EFFFFFFFFFFFFFF
(1676937901.108496) can0 18FEF200#000000001005FFFF
(1676937901.109080) can0 18FEF600#FF007DFFFFFFFFFF
(1676937901.109723) can0 18FEDB00#8011FFFFFFFFFFFF
(1676937901.110379) can0 18FEF100#FF000050000000FF
(1676937901.110997) can0 18FEEF00#FFFFFF96FFFFFFFF
(1676937901.115076) can0 08FE6E0B#FFFEFFFEFFFEFFFE
(1676937901.119677) can0 0CF00400#F07DE10000FFFFFF
(1676937901.134551) can0 0CF00400#F07DE10000FFFFFF
(1676937901.135010) can0 08FE6E0B#FFFEFFFEFFFEFFFE
(1676937901.149636) can0 0CF00400#F07DE10000FFFFFF
(1676937901.150201) can0 0CF00300#FF0000FFFFFFFFFF
(1676937901.155014) can0 08FE6E0B#FFFEFFFEFFFEFFFE
(1676937901.164446) can0 18EBFF00#01E015B380528F40
(1676937901.164891) can0 0CF00400#F07DE10000FFFFFF
(1676937901.175036) can0 08FE6E0B#FFFEFFFEFFFEFFFE
(1676937901.179727) can0 0CF00400#F07DE10000FFFFFF
(1676937901.194469) can0 0CF00400#F07DE10000FFFFFF
(1676937901.194916) can0 08FE6E0B#FFFEFFFEFFFEFFFE
(1676937901.195543) can0 18F0010B#C0FF33FFFF500B3F
(1676937901.196186) can0 18FEBF0B#FFFEFFFFFFFFFFFF
(1676937901.209910) can0 0CF00400#F07DE10000FFFFFF
(1676937901.210414) can0 0CF00300#FF0000FFFFFFFFFF
(1676937901.211003) can0 18F00029#F07DFFFFFFFFFFFF
(1676937901.211613) can0 18FEF200#000000001005FFFF
(1676937901.212397) can0 18FEF100#FF000050000000FF
(1676937901.215113) can0 08FE6E0B#FFFEFFFEFFFEFFFE
(1676937901.224316) can0 18EBFF00#021FD3002DE0C044
(1676937901.224744) can0 0CF00400#F07DE10000FFFFFF
(1676937901.235068) can0 08FE6E0B#FFFEFFFEFFFEFFFE
(1676937901.239409) can0 0CF00400#F07DE10000FFFFFF
(1676937901.254310) can0 0CF00400#F07DE10000FFFFFF
(1676937901.254962) can0 0CF00300#FF0000FFFFFFFFFF
(1676937901.255514) can0 08FE6E0B#FFFEFFFEFFFEFFFE
(1676937901.269348) can0 0CF00400#F07DE10000FFFFFF
(1676937901.274977) can0 08FE6E0B#FFFEFFFEFFFEFFFE
(1676937901.284170) can0 18EBFF00#03CD8052FFFFA404
(1676937901.284722) can0 0CF00400#F07DE10000FFFFFF
(1676937901.287750) can0 18ECFF0B#201A0004FFCAFE00
(1676937901.294977) can0 08FE6E0B#FFFEFFFEFFFEFFFE
(1676937901.295492) can0 18F0010B#C0FF33FFFF500B3F
(1676937901.296108) can0 18FEBF0B#FFFEFFFFFFFFFFFF
(1676937901.299809) can0 0CF00400#F07DE10000FFFFFF
(1676937901.300456) can0 0CF00300#FF0000FFFFFFFFFF
(1676937901.301003) can0 18F00029#F07DFFFFFFFFFFFF
(1676937901.301613) can0 18FEF200#000000001005FFFF
(1676937901.302254) can0 18FEF100#FF000050000000FF
(1676937901.314201) can0 0CF00400#F07DE10000FFFFFF
(1676937901.315022) can0 08FE6E0B#FFFEFFFEFFFEFFFE
(1676937901.329176) can0 0CF00400#F07DE10000FFFFFF
(1676937901.334938) can0 08FE6E0B#FFFEFFFEFFFEFFFE
(1676937901.337455) can0 18EBFF0B#0104FF1503027E16
(1676937901.344116) can0 18EBFF00#04C058FAFFFFFFFF
(1676937901.344610) can0 0CF00400#F07DE10000FFFFFF
(1676937901.355083) can0 08FE6E0B#FFFEFFFEFFFEFFFE
(1676937901.359477) can0 0CF00400#F07DE10000FFFFFF
(1676937901.359980) can0 0CF00300#FF0000FFFFFFFFFF
(1676937901.360644) can0 18FEDF00#8AE015FFFFFFFFFF
(1676937901.374035) can0 0CF00400#F07DE10000FFFFFF
(1676937901.375055) can0 08FE6E0B#FFFEFFFEFFFEFFFE
(1676937901.387548) can0 18EBFF0B#0203027E1703027E
(1676937901.389133) can0 0CF00400#F07DE10000FFFFFF
(1676937901.395080) can0 08FE6E0B#FFFEFFFEFFFEFFFE
(1676937901.395487) can0 18F0010B#C0FF33FFFF500B3F
(1676937901.396146) can0 18FEBF0B#FFFEFFFFFFFFFFFF
(1676937901.404422) can0 0CF00400#F07DE10000FFFFFF
(1676937901.405066) can0 0CF00300#FF0000FFFFFFFFFF
(1676937901.405812) can0 18F00029#F07DFFFFFFFFFFFF
(1676937901.406372) can0 18FEF200#000000001005FFFF
(1676937901.407054) can0 18FEF100#FF000050000000FF
(1676937901.415063) can0 08FE6E0B#FFFEFFFEFFFEFFFE
(1676937901.419277) can0 0CF00400#F07DE10000FFFFFF
(1676937901.433986) can0 0CF00400#F07DE10000FFFFFF
(1676937901.435028) can0 08FE6E0B#FFFEFFFEFFFEFFFE
(1676937901.437483) can0 18EBFF0B#031803027E220304
(1676937901.449145) can0 0CF00400#F07DE10000FFFFFF
(1676937901.449637) can0 0CF00300#FF0000FFFFFFFFFF
(1676937901.454999) can0 08FE6E0B#FFFEFFFEFFFEFFFE
(1676937901.463901) can0 0CF00400#F07DE10000FFFFFF
(1676937901.475094) can0 08FE6E0B#FFFEFFFEFFFEFFFE
(1676937901.479069) can0 0CF00400#F07DE10000FFFFFF
(1676937901.487500) can0 18EBFF0B#047E18030701FFFF
(1676937901.493950) can0 0CF00400#F07DE10000FFFFFF
(1676937901.495067) can0 08FE6E0B#FFFEFFFEFFFEFFFE
(1676937901.495486) can0 18F0010B#C0FF33FFFF500B3F
(1676937901.496169) can0 18FEBF0B#FFFEFFFFFFFFFFFF
(1676937901.509369) can0 0CF00400#F07DE10000FFFFFF
(1676937901.509959) can0 0CF00300#FF0000FFFFFFFFFF
(1676937901.510556) can0 18F00029#F07DFFFFFFFFFFFF
(1676937901.511187) can0 18FEF200#000000001005FFFF
(1676937901.511801) can0 18FEF100#FF000050000000FF
(1676937901.514991) can0 08FE6E0B#FFFEFFFEFFFEFFFE
(1676937901.523945) can0 0CF00400#F07DE10000FFFFFF
(1676937901.535078) can0 08FE6E0B#FFFEFFFEFFFEFFFE
(1676937901.539101) can0 0CF00400#F07DE10000FFFFFF
(1676937901.553963) can0 0CF00400#F07DE10000FFFFFF
(1676937901.554417) can0 0CF00300#FF0000FFFFFFFFFF
(1676937901.555111) can0 08FE6E0B#FFFEFFFEFFFEFFFE
(1676937901.568923) can0 0CF00400#F07DE10000FFFFFF
(1676937901.574983) can0 08FE6E0B#FFFEFFFEFFFEFFFE
(1676937901.583876) can0 0CF00400#F07DE10000FFFFFF
(1676937901.595100) can0 08FE6E0B#FFFEFFFEFFFEFFFE
(1676937901.595527) can0 18F0010B#C0FF33FFFF500B3F
(1676937901.596151) can0 18FEBF0B#FFFEFFFFFFFFFFFF
(1676937901.599544) can0 0CF00400#F07DE10000FFFFFF
(1676937901.600027) can0 0CF00300#FF0000FFFFFFFFFF
(1676937901.600708) can0 18FEDF00#8AE015FFFFFFFFFF
(1676937901.601328) can0 18F00029#F07DFFFFFFFFFFFF
(1676937901.601951) can0 18FEF200#000000001005FFFF
(1676937901.602621) can0 18FEF600#FF007DFFFFFFFFFF
(1676937901.603216) can0 18FEDB00#8011FFFFFFFFFFFF
(1676937901.603789) can0 18FEF100#FF000050000000FF
(1676937901.604440) can0 18FEEF00#FFFFFF96FFFFFFFF
(1676937901.613779) can0 0CF00400#F07DE10000FFFFFF
(1676937901.615031) can0 08FE6E0B#FFFEFFFEFFFEFFFE
(1676937901.628932) can0 0CF00400#F07DE10000FFFFFF
(1676937901.634982) can0 08FE6E0B#FFFEFFFEFFFEFFFE
(1676937901.643781) can0 0CF00400#F07DE10000FFFFFF
(1676937901.655010) can0 08FE6E0B#FFFEFFFEFFFEFFFE
(1676937901.658990) can0 0CF00400#F07DE10000FFFFFF
(1676937901.659477) can0 0CF00300#FF0000FFFFFFFFFF
(1676937901.673640) can0 0CF00400#F07DE10000FFFFFF
(1676937901.675001) can0 08FE6E0B#FFFEFFFEFFFEFFFE
(1676937901.688650) can0 0CF00400#F07DE10000FFFFFF
(1676937901.695112) can0 08FE6E0B#FFFEFFFEFFFEFFFE
(1676937901.695617) can0 18F0010B#C0FF33FFFF500B3F
(1676937901.696139) can0 18FEBF0B#FFFEFFFFFFFFFFFF
(1676937901.704081) can0 0CF00400#F07DE10000FFFFFF
(1676937901.704610) can0 0CF00300#FF0000FFFFFFFFFF
(1676937901.705195) can0 18F00029#F07DFFFFFFFFFFFF
(1676937901.705856) can0 18FEF200#000000001005FFFF
(1676937901.706444) can0 18FEF100#FF000050000000FF
(1676937901.715069) can0 08FE6E0B#FFFEFFFEFFFEFFFE
(1676937901.718682) can0 0CF00400#F07DE10000FFFFFF
(1676937901.733558) can0 0CF00400#F07DE10000FFFFFF
(1676937901.735039) can0 08FE6E0B#FFFEFFFEFFFEFFFE
(1676937901.748681) can0 0CF00400#F07DE10000FFFFFF
(1676937901.749131) can0 0CF00300#FF0000FFFFFFFFFF
(1676937901.755023) can0 08FE6E0B#FFFEFFFEFFFEFFFE
(1676937901.763576) can0 0CF00400#F07DE10000FFFFFF
(1676937901.774998) can0 08FE6E0B#FFFEFFFEFFFEFFFE
(1676937901.778653) can0 0CF00400#F07DE10000FFFFFF
(1676937901.793354) can0 0CF00400#F07DE10000FFFFFF
(1676937901.794995) can0 08FE6E0B#FFFEFFFEFFFEFFFE
(1676937901.795517) can0 18F0010B#C0FF33FFFF500B3F
(1676937901.796125) can0 18FEBF0B#FFFEFFFFFFFFFFFF
(1676937901.808827) can0 0CF00400#F07DE10000FFFFFF
(1676937901.809423) can0 0CF00300#FF0000FFFFFFFFFF
(1676937901.810144) can0 18F00029#F07DFFFFFFFFFFFF
(1676937901.810740) can0 18FEF200#000000001005FFFF
(1676937901.811324) can0 18FEF100#FF000050000000FF
(1676937901.815087) can0 08FE6E0B#FFFEFFFEFFFEFFFE
(1676937901.823495) can0 0CF00400#F07DE10000FFFFFF
(1676937901.835099) can0 08FE6E0B#FFFEFFFEFFFEFFFE
(1676937901.838615) can0 0CF00400#F07DE10000FFFFFF
(1676937901.853438) can0 0CF00400#F07DE10000FFFFFF
(1676937901.853999) can0 0CF00300#FF0000FFFFFFFFFF
(1676937901.854634) can0 18FEDF00#8AE015FFFFFFFFFF
(1676937901.855198) can0 08FE6E0B#FFFEFFFEFFFEFFFE
(1676937901.868446) can0 0CF00400#F07DE10000FFFFFF
(1676937901.875065) can0 08FE6E0B#FFFEFFFEFFFEFFFE
(1676937901.883379) can0 0CF00400#F07DE10000FFFFFF
(1676937901.895069) can0 08FE6E0B#FFFEFFFEFFFEFFFE
(1676937901.895525) can0 18F0010B#C0FF33FFFF500B3F
(1676937901.896104) can0 18FEBF0B#FFFEFFFFFFFFFFFF
(1676937901.899008) can0 0CF00400#F07DE10000FFFFFF
(1676937901.899461) can0 0CF00300#FF0000FFFFFFFFFF
(1676937901.900107) can0 18F00029#F07DFFFFFFFFFFFF
(1676937901.900711) can0 18FEF200#000000001005FFFF
(1676937901.901388) can0 18FEF100#FF000050000000FF
(1676937901.913293) can0 0CF00400#F07DE10000FFFFFF
(1676937901.915042) can0 08FE6E0B#FFFEFFFEFFFEFFFE
(1676937901.928366) can0 0CF00400#F07DE10000FFFFFF
(1676937901.935076) can0 08FE6E0B#FFFEFFFEFFFEFFFE
(1676937901.943278) can0 0CF00400#F07DE10000FFFFFF
(1676937901.955059) can0 08FE6E0B#FFFEFFFEFFFEFFFE
(1676937901.958461) can0 0CF00400#F07DE10000FFFFFF
(1676937901.958919) can0 0CF00300#FF0000FFFFFFFFFF
(1676937901.973225) can0 0CF00400#F07DE10000FFFFFF
(1676937901.975133) can0 08FE6E0B#FFFEFFFEFFFEFFFE
(1676937901.988194) can0 0CF00400#F07DE10000FFFFFF
(1676937901.995095) can0 08FE6E0B#FFFEFFFEFFFEFFFE
(1676937901.995485) can0 18F0010B#C0FF33FFFF500B3F
(1676937901.996149) can0 18FEBF0B#FFFEFFFFFFFFFFFF
(1676937902.003560) can0 0CF00400#F07DE10000FFFFFF
(1676937902.004063) can0 0CF00300#FF0000FFFFFFFFFF
(1676937902.004760) can0 18F00029#F07DFFFFFFFFFFFF
(1676937902.005357) can0 18FEF200#000000001005FFFF
(1676937902.006020) can0 18FEF100#FF000050000000FF
(1676937902.015111) can0 08FE6E0B#FFFEFFFEFFFEFFFE
(1676937902.018248) can0 0CF00400#F07DE10000FFFFFF
(1676937902.032986) can0 0CF00400#F07DE10000FFFFFF
(1676937902.035108) can0 08FE6E0B#FFFEFFFEFFFEFFFE
(1676937902.048149) can0 0CF00400#F07DE10000FFFFFF
(1676937902.048677) can0 0CF00300#FF0000FFFFFFFFFF
(1676937902.055014) can0 08FE6E0B#FFFEFFFEFFFEFFFE
(1676937902.063038) can0 0CF00400#F07DE10000FFFFFF
(1676937902.075088) can0 08FE6E0B#FFFEFFFEFFFEFFFE
(1676937902.078145) can0 0CF00400#F07DE10000FFFFFF
(1676937902.092963) can0 0CF00400#F07DE10000FFFFFF
(1676937902.095072) can0 08FE6E0B#FFFEFFFEFFFEFFFE
(1676937902.095609) can0 18F0010B#C0FF33FFFF500B3F
(1676937902.096165) can0 18FEBF0B#FFFEFFFFFFFFFFFF
(1676937902.108630) can0 0CF00400#F07DE10000FFFFFF
(1676937902.109194) can0 0CF00300#FF0000FFFFFFFFFF
(1676937902.109807) can0 18FEDF00#8AE015FFFFFFFFFF
(1676937902.110463) can0 18F00029#F07DFFFFFFFFFFFF
(1676937902.111076) can0 18FEEE00#1EFFFFFFFFFFFFFF
(1676937902.111679) can0 18FEF200#000000001005FFFF
(1676937902.112416) can0 18FEF600#FF007DFFFFFFFFFF
(1676937902.112959) can0 18FEDB00#8011FFFFFFFFFFFF
(1676937902.113592) can0 18FEF100#FF000050000000FF
(1676937902.114191) can0 18FEEF00#FFFFFF96FFFFFFFF
(1676937902.115142) can0 08FE6E0B#FFFEFFFEFFFEFFFE
(1676937902.122966) can0 0CF00400#F07DE10000FFFFFF
(1676937902.135065) can0 08FE6E0B#FFFEFFFEFFFEFFFE
(1676937902.138120) can0 0CF00400#F07DE10000FFFFFF
(1676937902.152955) can0 0CF00400#F07DE10000FFFFFF
(1676937902.153464) can0 0CF00300#FF0000FFFFFFFFFF
(1676937902.155055) can0 08FE6E0B#FFFEFFFEFFFEFFFE
(1676937902.167905) can0 0CF00400#F07DE10000FFFFFF
(1676937902.175068) can0 08FE6E0B#FFFEFFFEFFFEFFFE
(1676937902.182936) can0 0CF00400#F07DE10000FFFFFF
(1676937902.195025) can0 08FE6E0B#FFFEFFFEFFFEFFFE
(1676937902.195517) can0 18F0010B#C0FF33FFFF500B3F
(1676937902.196184) can0 18FEBF0B#FFFEFFFFFFFFFFFF
(1676937902.198525) can0 0CF00400#F07DE10000FFFFFF
(1676937902.199041) can0 0CF00300#FF0000FFFFFFFFFF
(1676937902.199699) can0 18F00029#F07DFFFFFFFFFFFF
(1676937902.200291) can0 18FEF200#000000001005FFFF
(1676937902.200919) can0 18FEF100#FF000050000000FF
(1676937902.212820) can0 0CF00400#F07DE10000FFFFFF
(1676937902.215026) can0 08FE6E0B#FFFEFFFEFFFEFFFE
(1676937902.227901) can0 0CF00400#F07DE10000FFFFFF
(1676937902.235107) can0 08FE6E0B#FFFEFFFEFFFEFFFE
(1676937902.242870) can0 0CF00400#F07DE10000FFFFFF
(1676937902.255127) can0 08FE6E0B#FFFEFFFEFFFEFFFE
(1676937902.257916) can0 0CF00400#F07DE10000FFFFFF
(1676937902.258484) can0 0CF00300#FF0000FFFFFFFFFF
(1676937902.272812) can0 0CF00400#F07DE10000FFFFFF
(1676937902.275090) can0 08FE6E0B#FFFEFFFEFFFEFFFE
(1676937902.287732) can0 0CF00400#F07DE10000FFFFFF
(1676937902.288190) can0 18ECFF0B#201A0004FFCAFE00
(1676937902.295134) can0 08FE6E0B#FFFEFFFEFFFEFFFE
(1676937902.295555) can0 18F0010B#C0FF33FFFF500B3F
(1676937902.296145) can0 18FEBF0B#FFFEFFFFFFFFFFFF
(1676937902.303126) can0 0CF00400#F07DE10000FFFFFF
(1676937902.303630) can0 0CF00300#FF0000FFFFFFFFFF
(1676937902.304221) can0 18F00029#F07DFFFFFFFFFFFF
(1676937902.304831) can0 18FEF200#000000001005FFFF
(1676937902.305487) can0 18FEF100#FF000050000000FF
(1676937902.315128) can0 08FE6E0B#FFFEFFFEFFFEFFFE
(1676937902.317745) can0 0CF00400#F07DE10000FFFFFF
(1676937902.332532) can0 0CF00400#F07DE10000FFFFFF
(1676937902.335098) can0 08FE6E0B#FFFEFFFEFFFEFFFE
(1676937902.337427) can0 18EBFF0B#0104FF1503027E16
(1676937902.347649) can0 0CF00400#F07DE10000FFFFFF
(1676937902.348228) can0 0CF00300#FF0000FFFFFFFFFF
(1676937902.348859) can0 18FEDF00#8AE015FFFFFFFFFF
(1676937902.354995) can0 08FE6E0B#FFFEFFFEFFFEFFFE
(1676937902.362654) can0 0CF00400#F07DE10000FFFFFF
(1676937902.374957) can0 08FE6E0B#FFFEFFFEFFFEFFFE
(1676937902.377693) can0 0CF00400#F07DE10000FFFFFF
(1676937902.387570) can0 18EBFF0B#0203027E1703027E
(1676937902.392491) can0 0CF00400#F07DE10000FFFFFF
(1676937902.395134) can0 08FE6E0B#FFFEFFFEFFFEFFFE
(1676937902.395496) can0 18F0010B#C0FF33FFFF500B3F
(1676937902.396165) can0 18FEBF0B#FFFEFFFFFFFFFFFF
(1676937902.407924) can0 0CF00400#F07DE10000FFFFFF
(1676937902.408482) can0 0CF00300#FF0000FFFFFFFFFF
(1676937902.409129) can0 18F00029#F07DFFFFFFFFFFFF
(1676937902.409720) can0 18FEF200#000000001005FFFF
(1676937902.410369) can0 18FEF100#FF000050000000FF
(1676937902.415081) can0 08FE6E0B#FFFEFFFEFFFEFFFE
(1676937902.422440) can0 0CF00400#F07DE10000FFFFFF
(1676937902.435095) can0 08FE6E0B#FFFEFFFEFFFEFFFE
(1676937902.437479) can0 18EBFF0B#031803027E220304
(1676937902.438006) can0 0CF00400#F07DE10000FFFFFF
(1676937902.452590) can0 0CF00400#F07DE10000FFFFFF
(1676937902.453003) can0 0CF00300#FF0000FFFFFFFFFF
(1676937902.455110) can0 08FE6E0B#FFFEFFFEFFFEFFFE
(1676937902.467440) can0 0CF00400#F07DE10000FFFFFF
(1676937902.475097) can0 08FE6E0B#FFFEFFFEFFFEFFFE
(1676937902.482396) can0 0CF00400#F07DE10000FFFFFF
(1676937902.487582) can0 18EBFF0B#047E18030701FFFF
(1676937902.495152) can0 08FE6E0B#FFFEFFFEFFFEFFFE
(1676937902.495572) can0 18F0010B#C0FF33FFFF500B3F
(1676937902.496183) can0 18FEBF0B#FFFEFFFFFFFFFFFF
(1676937902.498129) can0 0CF00400#F07DE10000FFFFFF
(1676937902.498768) can0 0CF00300#FF0000FFFFFFFFFF
(1676937902.499445) can0 18F00029#F07DFFFFFFFFFFFF
(1676937902.500035) can0 18FEF200#000000001005FFFF
(1676937902.500671) can0 18FEF100#FF000050000000FF
(1676937902.512258) can0 0CF00400#F07DE10000FFFFFF
(1676937902.515085) can0 08FE6E0B#FFFEFFFEFFFEFFFE
(1676937902.527387) can0 0CF00400#F07DE10000FFFFFF
(1676937902.535110) can0 08FE6E0B#FFFEFFFEFFFEFFFE
(1676937902.542306) can0 0CF00400#F07DE10000FFFFFF
(1676937902.555093) can0 08FE6E0B#FFFEFFFEFFFEFFFE
(1676937902.557418) can0 0CF00400#F07DE10000FFFFFF
(1676937902.558002) can0 0CF00300#FF0000FFFFFFFFFF
(1676937902.572236) can0 0CF00400#F07DE10000FFFFFF
(1676937902.575107) can0 08FE6E0B#FFFEFFFEFFFEFFFE
(1676937902.587259) can0 0CF00400#F07DE10000FFFFFF
(1676937902.595146) can0 08FE6E0B#FFFEFFFEFFFEFFFE
(1676937902.595520) can0 18F0010B#C0FF33FFFF500B3F
(1676937902.596197) can0 18FEBF0B#FFFEFFFFFFFFFFFF
(1676937902.602757) can0 0CF00400#F07DE10000FFFFFF
(1676937902.603292) can0 0CF00300#FF0000FFFFFFFFFF
(1676937902.603971) can0 18FEDF00#8AE015FFFFFFFFFF
(1676937902.604635) can0 18F00029#F07DFFFFFFFFFFFF
(1676937902.605168) can0 18FEF200#000000001005FFFF
(1676937902.605885) can0 18FEF600#FF007DFFFFFFFFFF
(1676937902.606538) can0 18FEDB00#8011FFFFFFFFFFFF
(1676937902.607096) can0 18FEF100#FF000050000000FF
(1676937902.607754) can0 18FEEF00#FFFFFF96FFFFFFFF
(1676937902.615079) can0 08FE6E0B#FFFEFFFEFFFEFFFE
(1676937902.617265) can0 0CF00400#F07DE10000FFFFFF
(1676937902.632086) can0 0CF00400#F07DE10000FFFFFF
(1676937902.635047) can0 08FE6E0B#FFFEFFFEFFFEFFFE
(1676937902.647243) can0 0CF00400#F07DE10000FFFFFF
(1676937902.647824) can0 0CF00300#FF0000FFFFFFFFFF
(1676937902.655060) can0 08FE6E0B#FFFEFFFEFFFEFFFE
(1676937902.662041) can0 0CF00400#F07DE10000FFFFFF
(1676937902.675132) can0 08FE6E0B#FFFEFFFEFFFEFFFE
(1676937902.677220) can0 0CF00400#F07DE10000FFFFFF
(1676937902.692009) can0 0CF00400#F07DE10000FFFFFF
(1676937902.695140) can0 08FE6E0B#FFFEFFFEFFFEFFFE
(1676937902.695511) can0 18F0010B#C0FF33FFFF500B3F
(1676937902.696188) can0 18FEBF0B#FFFEFFFFFFFFFFFF
(1676937902.707457) can0 0CF00400#F07DE10000FFFFFF
(1676937902.707902) can0 0CF00300#FF0000FFFFFFFFFF
(1676937902.708694) can0 18F00029#F07DFFFFFFFFFFFF
(1676937902.709306) can0 18FEF200#000000001005FFFF
(1676937902.709907) can0 18FEF100#FF000050000000FF
(1676937902.715118) can0 08FE6E0B#FFFEFFFEFFFEFFFE
(1676937902.721936) can0 0CF00400#F07DE10000FFFFFF
(1676937902.724769) can0 18EA00F9#E3FE00
(1676937902.735002) can0 08FE6E0B#FFFEFFFEFFFEFFFE
(1676937902.737133) can0 0CF00400#F07DE10000FFFFFF
(1676937902.752096) can0 18ECF900#101C0004FFE3FE00
(1676937902.752600) can0 0CF00400#F07DE10000FFFFFF
(1676937902.753176) can0 0CF00300#FF0000FFFFFFFFFF
(1676937902.755129) can0 08FE6E0B#FFFEFFFEFFFEFFFE
(1676937902.766935) can0 0CF00400#F07DE10000FFFFFF
(1676937902.775128) can0 08FE6E0B#FFFEFFFEFFFEFFFE
(1676937902.778444) can0 18EC00F9#11FF06FFFFE3FE00
(1676937902.781839) can0 18EBF900#06FFFEFFFEFF01FF
(1676937902.782458) can0 0CF00400#F07DE10000FFFFFF
(1676937902.795060) can0 08FE6E0B#FFFEFFFEFFFEFFFE
(1676937902.795516) can0 18F0010B#C0FF33FFFF500B3F
(1676937902.796168) can0 18FEBF0B#FFFEFFFFFFFFFFFF
(1676937902.797785) can0 18EBF900#0700000000000C00
(1676937902.798254) can0 0CF00400#F07DE10000FFFFFF
(1676937902.798890) can0 0CF00300#FF0000FFFFFFFFFF
(1676937902.799554) can0 18F00029#F07DFFFFFFFFFFFF
(1676937902.800141) can0 18FEF200#000000001005FFFF
(1676937902.800747) can0 18FEF100#FF000050000000FF
(1676937902.811699) can0 18EBF900#08101DB003200000
(1676937902.812267) can0 0CF00400#F07DE10000FFFFFF
(1676937902.815112) can0 08FE6E0B#FFFEFFFEFFFEFFFE
(1676937902.826740) can0 18EBF900#0908F50000000000
(1676937902.827274) can0 0CF00400#F07DE10000FFFFFF
(1676937902.835111) can0 08FE6E0B#FFFEFFFEFFFEFFFE
(1676937902.841840) can0 18EBF900#0A00002A00020005
(1676937902.842208) can0 0CF00400#F07DE10000FFFFFF
(1676937902.855154) can0 08FE6E0B#FFFEFFFEFFFEFFFE
(1676937902.857193) can0 18EBF900#0B00040019000500
(1676937902.857763) can0 0CF00400#F07DE10000FFFFFF
(1676937902.858407) can0 0CF00300#FF0000FFFFFFFFFF
(1676937902.858980) can0 18FEDF00#8AE015FFFFFFFFFF
(1676937902.871749) can0 18EBF900#0C11000100020000
(1676937902.872161) can0 0CF00400#F07DE10000FFFFFF
(1676937902.875091) can0 08FE6E0B#FFFEFFFEFFFEFFFE
(1676937902.886812) can0 18EBF900#0D00000000000200
(1676937902.887192) can0 0CF00400#F07DE10000FFFFFF
(1676937902.895095) can0 08FE6E0B#FFFEFFFEFFFEFFFE
(1676937902.895615) can0 18F0010B#C0FF33FFFF500B3F
(1676937902.896140) can0 18FEBF0B#FFFEFFFFFFFFFFFF
(1676937902.902052) can0 18EBF900#0E037D007FFF002E
(1676937902.902614) can0 0CF00400#F07DE10000FFFFFF
(1676937902.903176) can0 0CF00300#FF0000FFFFFFFFFF
(1676937902.903812) can0 18F00029#F07DFFFFFFFFFFFF
(1676937902.904400) can0 18FEF200#000000001005FFFF
(1676937902.905148) can0 18FEF100#FF000050000000FF
(1676937902.915068) can0 08FE6E0B#FFFEFFFEFFFEFFFE
(1676937902.916940) can0 18EBF900#0FBF38208002800A
(1676937902.917376) can0 0CF00400#F07DE10000FFFFFF
(1676937902.931616) can0 18EBF900#10970000002E9CDC
(1676937902.932077) can0 0CF00400#F07DE10000FFFFFF
(1676937902.935107) can0 08FE6E0B#FFFEFFFEFFFEFFFE
(1676937902.946699) can0 18EBF900#1100000000000000
(1676937902.947157) can0 0CF00400#F07DE10000FFFFFF
(1676937902.947792) can0 0CF00300#FF0000FFFFFFFFFF
(1676937902.955096) can0 08FE6E0B#FFFEFFFEFFFEFFFE
(1676937902.961618) can0 18EBF900#1200000000000000
(1676937902.962031) can0 0CF00400#F07DE10000FFFFFF
(1676937902.975077) can0 08FE6E0B#FFFEFFFEFFFEFFFE
(1676937902.976846) can0 18EBF900#1300000000010000
(1676937902.977354) can0 0CF00400#F07DE10000FFFFFF
(1676937902.991562) can0 18EBF900#140000003A000000
(1676937902.991984) can0 0CF00400#F07DE10000FFFFFF
(1676937902.995130) can0 08FE6E0B#FFFEFFFEFFFEFFFE
(1676937902.995594) can0 18F0010B#C0FF33FFFF500B3F
(1676937902.996175) can0 18FEBF0B#FFFEFFFFFFFFFFFF
(1676937903.007010) can0 18EBF900#1500000000000000
(1676937903.007433) can0 0CF00400#F07DE10000FFFFFF
(1676937903.008040) can0 0CF00300#FF0000FFFFFFFFFF
(1676937903.008724) can0 18F00029#F07DFFFFFFFFFFFF
(1676937903.009380) can0 18FEF200#000000001005FFFF
(1676937903.009906) can0 18FEF100#FF000050000000FF
(1676937903.015104) can0 08FE6E0B#FFFEFFFEFFFEFFFE
(1676937903.021456) can0 18EBF900#1600000000000000
(1676937903.021973) can0 0CF00400#F07DE10000FFFFFF
(1676937903.035090) can0 08FE6E0B#FFFEFFFEFFFEFFFE
(1676937903.036733) can0 18EBF900#1700000000000000
(1676937903.037197) can0 0CF00400#F07DE10000FFFFFF
(1676937903.051360) can0 18EBF900#1800081332000024
(1676937903.051970) can0 0CF00400#F07DE10000FFFFFF
(1676937903.052615) can0 0CF00300#FF0000FFFFFFFFFF
(1676937903.055025) can0 08FE6E0B#FFFEFFFEFFFEFFFE
(1676937903.066352) can0 18EBF900#199F00000157C000
(1676937903.066916) can0 0CF00400#F07DE10000FFFFFF
(1676937903.075132) can0 08FE6E0B#FFFEFFFEFFFEFFFE
(1676937903.081391) can0 18EBF900#1A04A38000000000
(1676937903.081887) can0 0CF00400#F07DE10000FFFFFF
(1676937903.095065) can0 08FE6E0B#FFFEFFFEFFFEFFFE
(1676937903.095593) can0 18F0010B#C0FF33FFFF500B3F
(1676937903.096102) can0 18FEBF0B#FFFEFFFFFFFFFFFF
(1676937903.097564) can0 18EBF900#1B00000000000000
(1676937903.098082) can0 0CF00400#F07DE10000FFFFFF
(1676937903.098690) can0 0CF00300#FF0000FFFFFFFFFF
(1676937903.099378) can0 18FEDF00#8AE015FFFFFFFFFF
(1676937903.099990) can0 18F00029#F07DFFFFFFFFFFFF
(1676937903.100559) can0 18FEEE00#1EFFFFFFFFFFFFFF
(1676937903.101196) can0 18FEF200#000000001005FFFF
(1676937903.101816) can0 18FEF600#FF007DFFFFFFFFFF
(1676937903.102473) can0 18FEDB00#8011FFFFFFFFFFFF
(1676937903.103064) can0 18FEF100#FF000050000000FF
(1676937903.103723) can0 18FEEF00#FFFFFF96FFFFFFFF
(1676937903.111264) can0 18EBF900#1C00000000000000
(1676937903.111747) can0 0CF00400#F07DE10000FFFFFF
(1676937903.115057) can0 08FE6E0B#FFFEFFFEFFFEFFFE
(1676937903.126388) can0 18EBF900#1D00000000000000
(1676937903.126814) can0 0CF00400#F07DE10000FFFFFF
(1676937903.135141) can0 08FE6E0B#FFFEFFFEFFFEFFFE
(1676937903.141347) can0 18EBF900#1E00000500047B3C
(1676937903.141742) can0 0CF00400#F07DE10000FFFFFF
(1676937903.155145) can0 08FE6E0B#FFFEFFFEFFFEFFFE
(1676937903.156611) can0 18EBF900#1F00000000000000
(1676937903.157060) can0 0CF00400#F07DE10000FFFFFF
(1676937903.157660) can0 0CF00300#FF0000FFFFFFFFFF
(1676937903.171251) can0 18EBF900#2000000814AC0000
(1676937903.171687) can0 0CF00400#F07DE10000FFFFFF
(1676937903.175140) can0 08FE6E0B#FFFEFFFEFFFEFFFE
(1676937903.186312) can0 18EBF900#2100000000000000
(1676937903.186719) can0 0CF00400#F07DE10000FFFFFF
(1676937903.195114) can0 08FE6E0B#FFFEFFFEFFFEFFFE
(1676937903.195629) can0 18F0010B#C0FF33FFFF500B3F
(1676937903.196188) can0 18FEBF0B#FFFEFFFFFFFFFFFF
(1676937903.201576) can0 18EBF900#220814AC00000000
(1676937903.202147) can0 0CF00400#F07DE10000FFFFFF
(1676937903.202682) can0 0CF00300#FF0000FFFFFFFFFF
(1676937903.203324) can0 18F00029#F07DFFFFFFFFFFFF
(1676937903.203993) can0 18FEF200#000000001005FFFF
(1676937903.204610) can0 18FEF100#FF000050000000FF
(1676937903.215071) can0 08FE6E0B#FFFEFFFEFFFEFFFE
(1676937903.216378) can0 18EBF900#2300000000000814
(1676937903.216932) can0 0CF00400#F07DE10000FFFFFF
(1676937903.231083) can0 18EBF900#24AC000000000000
(1676937903.231613) can0 0CF00400#F07DE10000FFFFFF
(1676937903.235142) can0 08FE6E0B#FFFEFFFEFFFEFFFE
(1676937903.246261) can0 18EBF900#250000000814AC00
(1676937903.246686) can0 0CF00400#F07DE10000FFFFFF
(1676937903.247369) can0 0CF00300#FF0000FFFFFFFFFF
(1676937903.255037) can0 08FE6E0B#FFFEFFFEFFFEFFFE
(1676937903.261154) can0 18EBF900#2600000000000000
(1676937903.261595) can0 0CF00400#F07DE10000FFFFFF
(1676937903.275142) can0 08FE6E0B#FFFEFFFEFFFEFFFE
(1676937903.276222) can0 18EBF900#27000814AC000000
(1676937903.276822) can0 0CF00400#F07DE10000FFFFFF
(1676937903.287799) can0 18ECFF0B#201A0004FFCAFE00
(1676937903.290999) can0 18EBF900#280000000000002C
(1676937903.291500) can0 0CF00400#F07DE10000FFFFFF
(1676937903.295095) can0 08FE6E0B#FFFEFFFEFFFEFFFE
(1676937903.295583) can0 18F0010B#C0FF33FFFF500B3F
(1676937903.296122) can0 18FEBF0B#FFFEFFFFFFFFFFFF
(1676937903.306429) can0 18EBF900#29E5240000000000
(1676937903.306904) can0 0CF00400#F07DE10000FFFFFF
(1676937903.307771) can0 0CF00300#FF0000FFFFFFFFFF
(1676937903.308197) can0 18F00029#F07DFFFFFFFFFFFF
(1676937903.308805) can0 18FEF200#000000001005FFFF
(1676937903.309455) can0 18FEF100#FF000050000000FF
(1676937903.315134) can0 08FE6E0B#FFFEFFFEFFFEFFFE
(1676937903.321080) can0 18EBF900#2A00000000000000
(1676937903.321462) can0 0CF00400#F07DE10000FFFFFF
(1676937903.335044) can0 08FE6E0B#FFFEFFFEFFFEFFFE
(1676937903.336368) can0 18EBF900#2B00000000000000
(1676937903.336899) can0 0CF00400#F07DE10000FFFFFF
(1676937903.337560) can0 18EBFF0B#0104FF1503027E16
(1676937903.350957) can0 18EBF900#2C0000000000000D
(1676937903.351491) can0 0CF00400#F07DE10000FFFFFF
(1676937903.352120) can0 0CF00300#FF0000FFFFFFFFFF
(1676937903.352815) can0 18FEDF00#8AE015FFFFFFFFFF
(1676937903.354976) can0 08FE6E0B#FFFEFFFEFFFEFFFE
(1676937903.365859) can0 18EBF900#2D00047B3C000000
(1676937903.366401) can0 0CF00400#F07DE10000FFFFFF
(1676937903.374995) can0 08FE6E0B#FFFEFFFEFFFEFFFE
(1676937903.380812) can0 18EBF900#2E00000000000008
(1676937903.381379) can0 0CF00400#F07DE10000FFFFFF
(1676937903.387532) can0 18EBFF0B#0203027E1703027E
(1676937903.394998) can0 08FE6E0B#FFFEFFFEFFFEFFFE
(1676937903.395556) can0 18F0010B#C0FF33FFFF500B3F
(1676937903.396088) can0 18FEBF0B#FFFEFFFFFFFFFFFF
(1676937903.396637) can0 0CF00400#F07DE10000FFFFFF
(1676937903.397205) can0 18EBF900#2F14AC0000000000
(1676937903.397814) can0 0CF00300#FF0000FFFFFFFFFF
(1676937903.398427) can0 18F00029#F07DFFFFFFFFFFFF
(1676937903.399067) can0 18FEF200#000000001005FFFF
(1676937903.399681) can0 18FEF100#FF000050000000FF
(1676937903.410774) can0 18EBF900#30000000000814AC
(1676937903.411286) can0 0CF00400#F07DE10000FFFFFF
(1676937903.414951) can0 08FE6E0B#FFFEFFFEFFFEFFFE
(1676937903.425825) can0 18EBF900#3100000000000000
(1676937903.426328) can0 0CF00400#F07DE10000FFFFFF
(1676937903.435062) can0 08FE6E0B#FFFEFFFEFFFEFFFE
(1676937903.437486) can0 18EBFF0B#031803027E220304
(1676937903.440693) can0 18EBF900#3200000814AC0000
(1676937903.441342) can0 0CF00400#F07DE10000FFFFFF
(1676937903.455062) can0 08FE6E0B#FFFEFFFEFFFEFFFE
(1676937903.456067) can0 18EBF900#3300000000000000
(1676937903.456643) can0 0CF00400#F07DE10000FFFFFF
(1676937903.457189) can0 0CF00300#FF0000FFFFFFFFFF
(1676937903.470751) can0 18EBF900#340814AC00000000
(1676937903.471212) can0 0CF00400#F07DE10000FFFFFF
(1676937903.475167) can0 08FE6E0B#FFFEFFFEFFFEFFFE
(1676937903.485791) can0 18EBF900#3500000000000814
(1676937903.486231) can0 0CF00400#F07DE10000FFFFFF
(1676937903.487617) can0 18EBFF0B#047E18030701FFFF
(1676937903.495071) can0 08FE6E0B#FFFEFFFEFFFEFFFE
(1676937903.495648) can0 18F0010B#C0FF33FFFF500B3F
(1676937903.496199) can0 18FEBF0B#FFFEFFFFFFFFFFFF
(1676937903.501000) can0 18EBF900#36AC000000000000
(1676937903.501607) can0 0CF00400#F07DE10000FFFFFF
(1676937903.502317) can0 0CF00300#FF0000FFFFFFFFFF
(1676937903.502903) can0 18F00029#F07DFFFFFFFFFFFF
(1676937903.503515) can0 18FEF200#000000001005FFFF
(1676937903.504169) can0 18FEF100#FF000050000000FF
(1676937903.515086) can0 08FE6E0B#FFFEFFFEFFFEFFFE
(1676937903.515842) can0 18EBF900#370000002CE7EE00
(1676937903.516418) can0 0CF00400#F07DE10000FFFFFF
(1676937903.530708) can0 18EBF900#3800000000000000
(1676937903.531131) can0 0CF00400#F07DE10000FFFFFF
(1676937903.535114) can0 08FE6E0B#FFFEFFFEFFFEFFFE
(1676937903.545748) can0 18EBF900#3900000000000200
(1676937903.546220) can0 0CF00400#F07DE10000FFFFFF
(1676937903.546862) can0 0CF00300#FF0000FFFFFFFFFF
(1676937903.555132) can0 08FE6E0B#FFFEFFFEFFFEFFFE
(1676937903.560672) can0 18EBF900#3A00000000000000
(1676937903.561142) can0 0CF00400#F07DE10000FFFFFF
(1676937903.575168) can0 08FE6E0B#FFFEFFFEFFFEFFFE
(1676937903.575815) can0 18EBF900#3B0000000100047B
(1676937903.576369) can0 0CF00400#F07DE10000FFFFFF
(1676937903.590638) can0 18EBF900#3C3C000000000000
(1676937903.591027) can0 0CF00400#F07DE10000FFFFFF
(1676937903.595078) can0 08FE6E0B#FFFEFFFEFFFEFFFE
(1676937903.595601) can0 18F0010B#C0FF33FFFF500B3F
(1676937903.596233) can0 18FEBF0B#FFFEFFFFFFFFFFFF
(1676937903.606223) can0 18EBF900#3D0000000814AC00
(1676937903.606632) can0 0CF00400#F07DE10000FFFFFF
(1676937903.607253) can0 0CF00300#FF0000FFFFFFFFFF
(1676937903.607883) can0 18FEDF00#8AE015FFFFFFFFFF
(1676937903.608706) can0 18F00029#F07DFFFFFFFFFFFF
(1676937903.609199) can0 18FEF200#000000001005FFFF
(1676937903.609881) can0 18FEF600#FF007DFFFFFFFFFF
(1676937903.610496) can0 18FEDB00#8011FFFFFFFFFFFF
(1676937903.611104) can0 18FEF100#FF000050000000FF
(1676937903.611692) can0 18FEEF00#FFFFFF96FFFFFFFF
(1676937903.615158) can0 08FE6E0B#FFFEFFFEFFFEFFFE
(1676937903.620526) can0 18EBF900#3E00000000000000
(1676937903.620979) can0 0CF00400#F07DE10000FFFFFF
(1676937903.635134) can0 08FE6E0B#FFFEFFFEFFFEFFFE
(1676937903.635613) can0 18EBF900#3F000814AC000000
(1676937903.636172) can0 0CF00400#F07DE10000FFFFFF
(1676937903.650631) can0 18EBF900#4000000000000008
(1676937903.651023) can0 0CF00400#F07DE10000FFFFFF
(1676937903.651710) can0 0CF00300#FF0000FFFFFFFFFF
(1676937903.655060) can0 08FE6E0B#FFFEFFFEFFFEFFFE
(1676937903.665446) can0 18EBF900#4114AC0000000000
(1676937903.665946) can0 0CF00400#F07DE10000FFFFFF
(1676937903.675067) can0 08FE6E0B#FFFEFFFEFFFEFFFE
(1676937903.680392) can0 18EBF900#42000000000814AC
(1676937903.680919) can0 0CF00400#F07DE10000FFFFFF
(1676937903.695113) can0 08FE6E0B#FFFEFFFEFFFEFFFE
(1676937903.695609) can0 18F0010B#C0FF33FFFF500B3F
(1676937903.696179) can0 0CF00400#F07DE10000FFFFFF
(1676937903.696750) can0 18EBF900#4300000000000000
(1676937903.697346) can0 0CF00300#FF0000FFFFFFFFFF
(1676937903.697878) can0 18FEBF0B#FFFEFFFFFFFFFFFF
(1676937903.698482) can0 18F00029#F07DFFFFFFFFFFFF
(1676937903.699165) can0 18FEF200#000000001005FFFF
(1676937903.699775) can0 18FEF100#FF000050000000FF
(1676937903.710371) can0 18EBF900#4400000814AC0000
(1676937903.710818) can0 0CF00400#F07DE10000FFFFFF
(1676937903.715078) can0 08FE6E0B#FFFEFFFEFFFEFFFE
(1676937903.725347) can0 18EBF900#4500000000000000
(1676937903.725894) can0 0CF00400#F07DE10000FFFFFF
(1676937903.735095) can0 08FE6E0B#FFFEFFFEFFFEFFFE
(1676937903.740378) can0 18EBF900#462CE6BC00000000
(1676937903.740827) can0 0CF00400#F07DE10000FFFFFF
(1676937903.755115) can0 08FE6E0B#FFFEFFFEFFFEFFFE
(1676937903.755619) can0 0CF00400#F07DE10000FFFFFF
(1676937903.756185) can0 18EBF900#4700000000000100
(1676937903.756745) can0 0CF00300#FF0000FFFFFFFFFF
(1676937903.770303) can0 18EBF900#4800000200000000
(1676937903.770752) can0 0CF00400#F07DE10000FFFFFF
(1676937903.775138) can0 08FE6E0B#FFFEFFFEFFFEFFFE
(1676937903.785304) can0 18EBF900#4900000000000000
(1676937903.785779) can0 0CF00400#F07DE10000FFFFFF
(1676937903.795116) can0 08FE6E0B#FFFEFFFEFFFEFFFE
(1676937903.795616) can0 18F0010B#C0FF33FFFF500B3F
(1676937903.796199) can0 18FEBF0B#FFFEFFFFFFFFFFFF
(1676937903.800686) can0 18EBF900#4A0A00047B3C0000
(1676937903.801088) can0 0CF00400#F07DE10000FFFFFF
(1676937903.801792) can0 0CF00300#FF0000FFFFFFFFFF
(1676937903.802379) can0 18F00029#F07DFFFFFFFFFFFF
(1676937903.803037) can0 18FEF200#000000001005FFFF
(1676937903.803610) can0 18FEF100#FF000050000000FF
(1676937903.815103) can0 08FE6E0B#FFFEFFFEFFFEFFFE
(1676937903.815604) can0 0CF00400#F07DE10000FFFFFF
(1676937903.816171) can0 18EBF900#4B00000000000000
(1676937903.830189) can0 18EBF900#4C0814AC00000000
(1676937903.830608) can0 0CF00400#F07DE10000FFFFFF
(1676937903.835166) can0 08FE6E0B#FFFEFFFEFFFEFFFE
(1676937903.845376) can0 18EBF900#4D00000000000814
(1676937903.845765) can0 0CF00400#F07DE10000FFFFFF
(1676937903.846374) can0 0CF00300#FF0000FFFFFFFFFF
(1676937903.847066) can0 18FEDF00#8AE015FFFFFFFFFF
(1676937903.855150) can0 08FE6E0B#FFFEFFFEFFFEFFFE
(1676937903.860181) can0 18EBF900#4EAC000000000000
(1676937903.860605) can0 0CF00400#F07DE10000FFFFFF
(1676937903.875134) can0 08FE6E0B#FFFEFFFEFFFEFFFE
(1676937903.875604) can0 0CF00400#F07DE10000FFFFFF
(1676937903.876173) can0 18EBF900#4F0000000814AC00
(1676937903.890161) can0 18EBF900#5000000000000000
(1676937903.890581) can0 0CF00400#F07DE10000FFFFFF
(1676937903.895155) can0 08FE6E0B#FFFEFFFEFFFEFFFE
(1676937903.895613) can0 18F0010B#C0FF33FFFF500B3F
(1676937903.896168) can0 18FEBF0B#FFFEFFFFFFFFFFFF
(1676937903.905464) can0 18EBF900#51000814AC000000
(1676937903.905970) can0 0CF00400#F07DE10000FFFFFF
(1676937903.906656) can0 0CF00300#FF0000FFFFFFFFFF
(1676937903.907210) can0 18F00029#F07DFFFFFFFFFFFF
(1676937903.907863) can0 18FEF200#000000001005FFFF
(1676937903.908516) can0 18FEF100#FF000050000000FF
(1676937903.915099) can0 08FE6E0B#FFFEFFFEFFFEFFFE
(1676937903.920070) can0 18EBF900#5200000000000008
(1676937903.920563) can0 0CF00400#F07DE10000FFFFFF
(1676937903.935151) can0 08FE6E0B#FFFEFFFEFFFEFFFE
(1676937903.935581) can0 0CF00400#F07DE10000FFFFFF
(1676937903.936171) can0 18EBF900#5314AC0000000000
(1676937903.950077) can0 18EBF900#54000000002CE656
(1676937903.950476) can0 0CF00400#F07DE10000FFFFFF
(1676937903.951178) can0 0CF00300#FF0000FFFFFFFFFF
(1676937903.955089) can0 08FE6E0B#FFFEFFFEFFFEFFFE
(1676937903.964961) can0 18EBF900#5500000000000000
(1676937903.965487) can0 0CF00400#F07DE10000FFFFFF
(1676937903.975155) can0 08FE6E0B#FFFEFFFEFFFEFFFE
(1676937903.979961) can0 18EBF900#5600000000000000
(1676937903.980449) can0 0CF00400#F07DE10000FFFFFF
(1676937903.995164) can0 08FE6E0B#FFFEFFFEFFFEFFFE
(1676937903.995620) can0 0CF00400#F07DE10000FFFFFF
(1676937903.996192) can0 18EBF900#5700000000000000
(1676937903.996798) can0 0CF00300#FF0000FFFFFFFFFF
(1676937903.997296) can0 18F0010B#C0FF33FFFF500B3F
(1676937903.997854) can0 18F00029#F07DFFFFFFFFFFFF
(1676937903.998423) can0 18FEBF0B#FFFEFFFFFFFFFFFF
(1676937903.999012) can0 18FEF200#000000001005FFFF
(1676937903.999749) can0 18FEF100#FF000050000000FF
(1676937904.009889) can0 18EBF900#58000000000B0004
(1676937904.010352) can0 0CF00400#F07DE10000FFFFFF
(1676937904.015149) can0 08FE6E0B#FFFEFFFEFFFEFFFE
(1676937904.024891) can0 18EBF900#597B3C0000000000
(1676937904.025362) can0 0CF00400#F07DE10000FFFFFF
(1676937904.035107) can0 08FE6E0B#FFFEFFFEFFFEFFFE
(1676937904.039842) can0 18EBF900#5A000000000814AC
(1676937904.040329) can0 0CF00400#F07DE10000FFFFFF
(1676937904.055147) can0 18EBF900#5B00000000000000
(1676937904.055606) can0 08FE6E0B#FFFEFFFEFFFEFFFE
(1676937904.056180) can0 0CF00400#F07DE10000FFFFFF
(1676937904.056785) can0 0CF00300#FF0000FFFFFFFFFF
(1676937904.069726) can0 18EBF900#5C00000814AC0000
(1676937904.070218) can0 0CF00400#F07DE10000FFFFFF
(1676937904.075140) can0 08FE6E0B#FFFEFFFEFFFEFFFE
(1676937904.084822) can0 18EBF900#5D00000000000000
(1676937904.085207) can0 0CF00400#F07DE10000FFFFFF
(1676937904.095111) can0 08FE6E0B#FFFEFFFEFFFEFFFE
(1676937904.095691) can0 18F0010B#C0FF33FFFF500B3F
(1676937904.096189) can0 18FEBF0B#FFFEFFFFFFFFFFFF
(1676937904.100283) can0 18EBF900#5E0814AC00000000
(1676937904.100816) can0 0CF00400#F07DE10000FFFFFF
(1676937904.101561) can0 0CF00300#FF0000FFFFFFFFFF
(1676937904.102184) can0 18FEDF00#8AE015FFFFFFFFFF
(1676937904.102795) can0 18F00029#F07DFFFFFFFFFFFF
(1676937904.103476) can0 18FEEE00#1EFFFFFFFFFFFFFF
(1676937904.104039) can0 18FEF200#000000001005FFFF
(1676937904.104696) can0 18FEF600#FF007DFFFFFFFFFF
(1676937904.105322) can0 18FEDB00#8011FFFFFFFFFFFF
(1676937904.105961) can0 18FEF100#FF000050000000FF
(1676937904.106568) can0 18FEEF00#FFFFFF96FFFFFFFF
(1676937904.114841) can0 18EBF900#5F00000000000814
(1676937904.115409) can0 08FE6E0B#FFFEFFFEFFFEFFFE
(1676937904.115964) can0 0CF00400#F07DE10000FFFFFF
(1676937904.129720) can0 18EBF900#60AC000000000000
(1676937904.130185) can0 0CF00400#F07DE10000FFFFFF
(1676937904.135137) can0 08FE6E0B#FFFEFFFEFFFEFFFE
(1676937904.144669) can0 18EBF900#610000000814AC00
(1676937904.145206) can0 0CF00400#F07DE10000FFFFFF
(1676937904.145873) can0 0CF00300#FF0000FFFFFFFFFF
(1676937904.155109) can0 08FE6E0B#FFFEFFFEFFFEFFFE
(1676937904.159752) can0 18EBF900#6200000000000000
(1676937904.160100) can0 0CF00400#F07DE10000FFFFFF
(1676937904.174903) can0 18EBF900#63002CE788000000
(1676937904.175278) can0 08FE6E0B#FFFEFFFEFFFEFFFE
(1676937904.175931) can0 0CF00400#F07DE10000FFFFFF
(1676937904.189455) can0 18EBF900#6400000000000000
(1676937904.190071) can0 0CF00400#F07DE10000FFFFFF
(1676937904.195198) can0 08FE6E0B#FFFEFFFEFFFEFFFE
(1676937904.195587) can0 18F0010B#C0FF33FFFF500B3F
(1676937904.196261) can0 18FEBF0B#FFFEFFFFFFFFFFFF
(1676937904.205080) can0 18EBF900#65002C09C4000000
(1676937904.205507) can0 0CF00400#F07DE10000FFFFFF
(1676937904.206138) can0 0CF00300#FF0000FFFFFFFFFF
(1676937904.206800) can0 18F00029#F07DFFFFFFFFFFFF
(1676937904.207411) can0 18FEF200#000000001005FFFF
(1676937904.208003) can0 18FEF100#FF000050000000FF
(1676937904.215134) can0 08FE6E0B#FFFEFFFEFFFEFFFE
(1676937904.219482) can0 18EBF900#6600000000000000
(1676937904.220059) can0 0CF00400#F07DE10000FFFFFF
(1676937904.234590) can0 18EBF900#670000000814AE00
(1676937904.235133) can0 08FE6E0B#FFFEFFFEFFFEFFFE
(1676937904.235700) can0 0CF00400#F07DE10000FFFFFF
(1676937904.249503) can0 18EBF900#6800000000000000
(1676937904.250019) can0 0CF00400#F07DE10000FFFFFF
(1676937904.250692) can0 0CF00300#FF0000FFFFFFFFFF
(1676937904.255119) can0 08FE6E0B#FFFEFFFEFFFEFFFE
(1676937904.264552) can0 18EBF900#6900081480002C35
(1676937904.264974) can0 0CF00400#F07DE10000FFFFFF
(1676937904.275141) can0 08FE6E0B#FFFEFFFEFFFEFFFE
(1676937904.279442) can0 18EBF900#6A62000000000008
(1676937904.279944) can0 0CF00400#F07DE10000FFFFFF
(1676937904.287801) can0 18ECFF0B#201A0004FFCAFE00
(1676937904.295068) can0 18EBF900#6B14AC0000000000
(1676937904.295671) can0 08FE6E0B#FFFEFFFEFFFEFFFE
(1676937904.296223) can0 0CF00400#F07DE10000FFFFFF
(1676937904.296750) can0 18F0010B#C0FF33FFFF500B3F
(1676937904.297234) can0 0CF00300#FF0000FFFFFFFFFF
(1676937904.297878) can0 18FEBF0B#FFFEFFFFFFFFFFFF
(1676937904.298426) can0 18F00029#F07DFFFFFFFFFFFF
(1676937904.299156) can0 18FEF200#000000001005FFFF
(1676937904.299672) can0 18FEF100#FF000050000000FF
(1676937904.309254) can0 18EBF900#6C00000000047B6E
(1676937904.309815) can0 0CF00400#F07DE10000FFFFFF
(1676937904.315157) can0 08FE6E0B#FFFEFFFEFFFEFFFE
(1676937904.324417) can0 18EBF900#6D002C356E000000
(1676937904.324873) can0 0CF00400#F07DE10000FFFFFF
(1676937904.335193) can0 08FE6E0B#FFFEFFFEFFFEFFFE
(1676937904.337598) can0 18EBFF0B#0104FF1503027E16
(1676937904.339415) can0 18EBF900#6E00000814AC0000
(1676937904.339924) can0 0CF00400#F07DE10000FFFFFF
(1676937904.354652) can0 18EBF900#6F00000000000000
(1676937904.355046) can0 08FE6E0B#FFFEFFFEFFFEFFFE
(1676937904.355654) can0 0CF00400#F07DE10000FFFFFF
(1676937904.356274) can0 0CF00300#FF0000FFFFFFFFFF
(1676937904.356875) can0 18FEDF00#8AE015FFFFFFFFFF
(1676937904.369250) can0 18EBF900#70047AE6002C3574
(1676937904.369796) can0 0CF00400#F07DE10000FFFFFF
(1676937904.375079) can0 08FE6E0B#FFFEFFFEFFFEFFFE
(1676937904.384279) can0 18EBF900#7100000000002CE7
(1676937904.384800) can0 0CF00400#F07DE10000FFFFFF
(1676937904.387543) can0 18EBFF0B#0203027E1703027E
(1676937904.395106) can0 08FE6E0B#FFFEFFFEFFFEFFFE
(1676937904.395615) can0 18F0010B#C0FF33FFFF500B3F
(1676937904.396215) can0 18FEBF0B#FFFEFFFFFFFFFFFF
(1676937904.399765) can0 18EBF900#7222000000000000
(1676937904.400134) can0 0CF00400#F07DE10000FFFFFF
(1676937904.400757) can0 0CF00300#FF0000FFFFFFFFFF
(1676937904.401452) can0 18F00029#F07DFFFFFFFFFFFF
(1676937904.402047) can0 18FEF200#000000001005FFFF
(1676937904.402699) can0 18FEF100#FF000050000000FF
(1676937904.414376) can0 18EBF900#7300000000000000
(1676937904.414927) can0 0CF00400#F07DE10000FFFFFF
(1676937904.415551) can0 08FE6E0B#FFFEFFFEFFFEFFFE
(1676937904.429214) can0 18EBF900#7400000000000000
(1676937904.429670) can0 0CF00400#F07DE10000FFFFFF
(1676937904.435101) can0 08FE6E0B#FFFEFFFEFFFEFFFE
(1676937904.437550) can0 18EBFF0B#031803027E220304
(1676937904.444308) can0 18EBF900#7500000000000C00
(1676937904.444722) can0 0CF00400#F07DE10000FFFFFF
(1676937904.445449) can0 0CF00300#FF0000FFFFFFFFFF
(1676937904.455038) can0 08FE6E0B#FFFEFFFEFFFEFFFE
(1676937904.459097) can0 18EBF900#76047B3C00000000
(1676937904.459679) can0 0CF00400#F07DE10000FFFFFF
(1676937904.474281) can0 18EBF900#7700000000000814
(1676937904.474755) can0 0CF00400#F07DE10000FFFFFF
(1676937904.475297) can0 08FE6E0B#FFFEFFFEFFFEFFFE
(1676937904.487558) can0 18EBFF0B#047E18030701FFFF
(1676937904.489136) can0 18EBF900#78AC000000000000
(1676937904.489642) can0 0CF00400#F07DE10000FFFFFF
(1676937904.495201) can0 08FE6E0B#FFFEFFFEFFFEFFFE
(1676937904.495585) can0 18F0010B#C0FF33FFFF500B3F
(1676937904.496185) can0 18FEBF0B#FFFEFFFFFFFFFFFF
(1676937904.504451) can0 18EBF900#790000000814AC00
(1676937904.504950) can0 0CF00400#F07DE10000FFFFFF
(1676937904.505631) can0 0CF00300#FF0000FFFFFFFFFF
(1676937904.506285) can0 18F00029#F07DFFFFFFFFFFFF
(1676937904.506920) can0 18FEF200#000000001005FFFF
(1676937904.507575) can0 18FEF100#FF000050000000FF
(1676937904.515101) can0 08FE6E0B#FFFEFFFEFFFEFFFE
(1676937904.519091) can0 18EBF900#7A00000000000000
(1676937904.519619) can0 0CF00400#F07DE10000FFFFFF
(1676937904.534225) can0 18EBF900#7B000814AC000000
(1676937904.534752) can0 0CF00400#F07DE10000FFFFFF
(1676937904.535349) can0 08FE6E0B#FFFEFFFEFFFEFFFE
(1676937904.549116) can0 18EBF900#7C00000000000008
(1676937904.549523) can0 0CF00400#F07DE10000FFFFFF
(1676937904.550210) can0 0CF00300#FF0000FFFFFFFFFF
(1676937904.555149) can0 08FE6E0B#FFFEFFFEFFFEFFFE
(1676937904.564096) can0 18EBF900#7D14AC0000000000
(1676937904.564491) can0 0CF00400#F07DE10000FFFFFF
(1676937904.575208) can0 08FE6E0B#FFFEFFFEFFFEFFFE
(1676937904.579013) can0 18EBF900#7E000000000814AC
(1676937904.579441) can0 0CF00400#F07DE10000FFFFFF
(1676937904.594791) can0 18EBF900#7F00000000000000
(1676937904.595139) can0 08FE6E0B#FFFEFFFEFFFEFFFE
(1676937904.595772) can0 0CF00400#F07DE10000FFFFFF
(1676937904.596305) can0 18F0010B#C0FF33FFFF500B3F
(1676937904.596887) can0 0CF00300#FF0000FFFFFFFFFF
(1676937904.597499) can0 18FEBF0B#FFFEFFFFFFFFFFFF
(1676937904.598038) can0 18FEDF00#8AE015FFFFFFFFFF
(1676937904.598744) can0 18F00029#F07DFFFFFFFFFFFF
(1676937904.599286) can0 18FEF200#000000001005FFFF
(1676937904.599923) can0 18FEF600#FF007DFFFFFFFFFF
(1676937904.600603) can0 18FEDB00#8011FFFFFFFFFFFF
(1676937904.601269) can0 18FEF100#FF000050000000FF
(1676937904.601808) can0 18FEEF00#FFFFFF96FFFFFFFF
(1676937904.608870) can0 18EBF900#8000000000000000
(1676937904.609463) can0 0CF00400#F07DE10000FFFFFF
(1676937904.615117) can0 08FE6E0B#FFFEFFFEFFFEFFFE
(1676937904.623975) can0 18EBF900#8100000000000000
(1676937904.624487) can0 0CF00400#F07DE10000FFFFFF
(1676937904.635098) can0 08FE6E0B#FFFEFFFEFFFEFFFE
(1676937904.638884) can0 18EBF900#8200000000000000
(1676937904.639397) can0 0CF00400#F07DE10000FFFFFF
(1676937904.654202) can0 18EBF900#8300000000000000
(1676937904.654617) can0 0CF00400#F07DE10000FFFFFF
(1676937904.655195) can0 08FE6E0B#FFFEFFFEFFFEFFFE
(1676937904.655765) can0 0CF00300#FF0000FFFFFFFFFF
(1676937904.668806) can0 18EBF900#8400000600047B3C
(1676937904.669240) can0 0CF00400#F07DE10000FFFFFF
(1676937904.675149) can0 08FE6E0B#FFFEFFFEFFFEFFFE
(1676937904.683896) can0 18EBF900#8500000000000000
(1676937904.684274) can0 0CF00400#F07DE10000FFFFFF
(1676937904.695176) can0 08FE6E0B#FFFEFFFEFFFEFFFE
(1676937904.695624) can0 18F0010B#C0FF33FFFF500B3F
(1676937904.696204) can0 18FEBF0B#FFFEFFFFFFFFFFFF
(1676937904.699189) can0 18EBF900#8600000814AC0000
(1676937904.699669) can0 0CF00400#F07DE10000FFFFFF
(1676937904.700316) can0 0CF00300#FF0000FFFFFFFFFF
(1676937904.700920) can0 18F00029#F07DFFFFFFFFFFFF
(1676937904.701687) can0 18FEF200#000000001005FFFF
(1676937904.702218) can0 18FEF100#FF000050000000FF
(1676937904.714029) can0 18EBF900#8700000000000000
(1676937904.714449) can0 0CF00400#F07DE10000FFFFFF
(1676937904.715097) can0 08FE6E0B#FFFEFFFEFFFEFFFE
(1676937904.728746) can0 18EBF900#880814AC00000000
(1676937904.729245) can0 0CF00400#F07DE10000FFFFFF
(1676937904.735118) can0 08FE6E0B#FFFEFFFEFFFEFFFE
(1676937904.743782) can0 18EBF900#8900000000000814
(1676937904.744249) can0 0CF00400#F07DE10000FFFFFF
(1676937904.744927) can0 0CF00300#FF0000FFFFFFFFFF
(1676937904.755077) can0 08FE6E0B#FFFEFFFEFFFEFFFE
(1676937904.758621) can0 18EBF900#8AAC000000000000
(1676937904.759155) can0 0CF00400#F07DE10000FFFFFF
(1676937904.773802) can0 18EBF900#8B0000000814AC00
(1676937904.774443) can0 0CF00400#F07DE10000FFFFFF
(1676937904.775150) can0 08FE6E0B#FFFEFFFEFFFEFFFE
(1676937904.788491) can0 18EBF900#8C00000000000000
(1676937904.789067) can0 0CF00400#F07DE10000FFFFFF
(1676937904.795053) can0 08FE6E0B#FFFEFFFEFFFEFFFE
(1676937904.795611) can0 18F0010B#C0FF33FFFF500B3F
(1676937904.796214) can0 18FEBF0B#FFFEFFFFFFFFFFFF
(1676937904.804018) can0 18EBF900#8D000814AC000000
(1676937904.804579) can0 0CF00400#F07DE10000FFFFFF
(1676937904.805149) can0 0CF00300#FF0000FFFFFFFFFF
(1676937904.805840) can0 18F00029#F07DFFFFFFFFFFFF
(1676937904.806450) can0 18FEF200#000000001005FFFF
(1676937904.807031) can0 18FEF100#FF000050000000FF
(1676937904.815232) can0 08FE6E0B#FFFEFFFEFFFEFFFE
(1676937904.818579) can0 18EBF900#8E0000000000002C
(1676937904.819065) can0 0CF00400#F07DE10000FFFFFF
(1676937904.833689) can0 18EBF900#8FE4BE0000000000
(1676937904.834191) can0 0CF00400#F07DE10000FFFFFF
(1676937904.835154) can0 08FE6E0B#FFFEFFFEFFFEFFFE
(1676937904.848731) can0 18EBF900#9000000000000000
(1676937904.849111) can0 0CF00400#F07DE10000FFFFFF
(1676937904.849750) can0 0CF00300#FF0000FFFFFFFFFF
(1676937904.850380) can0 18FEDF00#8AE015FFFFFFFFFF
(1676937904.855200) can0 08FE6E0B#FFFEFFFEFFFEFFFE
(1676937904.863599) can0 18EBF900#9100000000000000
(1676937904.864052) can0 0CF00400#F07DE10000FFFFFF
(1676937904.875067) can0 08FE6E0B#FFFEFFFEFFFEFFFE
(1676937904.878433) can0 18EBF900#9200000000000008
(1676937904.878986) can0 0CF00400#F07DE10000FFFFFF
(1676937904.894080) can0 18EBF900#9300047B3C000000
(1676937904.894454) can0 0CF00400#F07DE10000FFFFFF
(1676937904.895168) can0 08FE6E0B#FFFEFFFEFFFEFFFE
(1676937904.895745) can0 0CF00300#FF0000FFFFFFFFFF
(1676937904.896260) can0 18F0010B#C0FF33FFFF500B3F
(1676937904.896796) can0 18F00029#F07DFFFFFFFFFFFF
(1676937904.897459) can0 18FEBF0B#FFFEFFFFFFFFFFFF
(1676937904.898013) can0 18FEF200#000000001005FFFF
(1676937904.898601) can0 18FEF100#FF000050000000FF
(1676937904.908432) can0 18EBF900#9400000000000008
(1676937904.908891) can0 0CF00400#F07DE10000FFFFFF
(1676937904.915120) can0 08FE6E0B#FFFEFFFEFFFEFFFE
(1676937904.923381) can0 18EBF900#9514AC0000000000
(1676937904.923930) can0 0CF00400#F07DE10000FFFFFF
(1676937904.935143) can0 08FE6E0B#FFFEFFFEFFFEFFFE
(1676937904.938399) can0 18EBF900#96000000000814AC
(1676937904.938839) can0 0CF00400#F07DE10000FFFFFF
(1676937904.953604) can0 18EBF900#9700000000000000
(1676937904.954011) can0 0CF00400#F07DE10000FFFFFF
(1676937904.954642) can0 0CF00300#FF0000FFFFFFFFFF
(1676937904.955233) can0 08FE6E0B#FFFEFFFEFFFEFFFE
(1676937904.968405) can0 18EBF900#9800000814AC0000
(1676937904.968795) can0 0CF00400#F07DE10000FFFFFF
(1676937904.975206) can0 08FE6E0B#FFFEFFFEFFFEFFFE
(1676937904.983262) can0 18EBF900#9900000000000000
(1676937904.983839) can0 0CF00400#F07DE10000FFFFFF
(1676937904.995164) can0 08FE6E0B#FFFEFFFEFFFEFFFE
(1676937904.995623) can0 18F0010B#C0FF33FFFF500B3F
(1676937904.996198) can0 18FEBF0B#FFFEFFFFFFFFFFFF
(1676937904.998718) can0 18EBF900#9A0814AC00000000
(1676937904.999151) can0 0CF00400#F07DE10000FFFFFF
(1676937904.999895) can0 0CF00300#FF0000FFFFFFFFFF
(1676937905.000456) can0 18F00029#F07DFFFFFFFFFFFF
(1676937905.001049) can0 18FEF200#000000001005FFFF
(1676937905.001676) can0 18FEF100#FF000050000000FF
(1676937905.013520) can0 18EBF900#9B00000000000814
(1676937905.013918) can0 0CF00400#F07DE10000FFFFFF
(1676937905.015144) can0 08FE6E0B#FFFEFFFEFFFEFFFE
(1676937905.028266) can0 18EBF900#9CAC000000000000
(1676937905.028715) can0 0CF00400#F07DE10000FFFFFF
(1676937905.035153) can0 08FE6E0B#FFFEFFFEFFFEFFFE
(1676937905.043174) can0 18EBF900#9D0000002CE58A00
(1676937905.043750) can0 0CF00400#F07DE10000FFFFFF
(1676937905.044443) can0 0CF00300#FF0000FFFFFFFFFF
(1676937905.055044) can0 08FE6E0B#FFFEFFFEFFFEFFFE
(1676937905.058214) can0 18EBF900#9E00001000090009
(1676937905.058615) can0 0CF00400#F07DE10000FFFFFF
(1676937905.073236) can0 18EBF900#9F00000000000000
(1676937905.073807) can0 0CF00400#F07DE10000FFFFFF
(1676937905.075142) can0 08FE6E0B#FFFEFFFEFFFEFFFE
(1676937905.088216) can0 18EBF900#A0000000578055F0
(1676937905.088650) can0 0CF00400#F07DE10000FFFFFF
(1676937905.095204) can0 08FE6E0B#FFFEFFFEFFFEFFFE
(1676937905.095613) can0 18F0010B#C0FF33FFFF500B3F
(1676937905.096217) can0 18FEBF0B#FFFEFFFFFFFFFFFF
(1676937905.103818) can0 18EBF900#A1000000200C000A
(1676937905.104265) can0 0CF00400#F07DE10000FFFFFF
(1676937905.104866) can0 0CF00300#FF0000FFFFFFFFFF
(1676937905.105589) can0 18FEDF00#8AE015FFFFFFFFFF
(1676937905.106217) can0 18F00029#F07DFFFFFFFFFFFF
(1676937905.106794) can0 18FEEE00#1EFFFFFFFFFFFFFF
(1676937905.107386) can0 18FEF200#000000001005FFFF
(1676937905.108048) can0 18FEF600#FF007DFFFFFFFFFF
(1676937905.108682) can0 18FEDB00#8011FFFFFFFFFFFF
(1676937905.109281) can0 18FEF100#FF000050000000FF
(1676937905.109905) can0 18FEEF00#FFFFFF96FFFFFFFF
(1676937905.115026) can0 08FE6E0B#FFFEFFFEFFFEFFFE
(1676937905.118018) can0 18EBF900#A2E0090008C00011
(1676937905.118603) can0 0CF00400#F07DE10000FFFFFF
(1676937905.133335) can0 18EBF900#A300110B8000FA08
(1676937905.133664) can0 0CF00400#F07DE10000FFFFFF
(1676937905.135105) can0 08FE6E0B#FFFEFFFEFFFEFFFE
(1676937905.148118) can0 18EBF900#A440008000010000
(1676937905.148630) can0 0CF00400#F07DE10000FFFFFF
(1676937905.149187) can0 0CF00300#FF0000FFFFFFFFFF
(1676937905.155120) can0 08FE6E0B#FFFEFFFEFFFEFFFE
(1676937905.163004) can0 18EBF900#A5056D0000000000
(1676937905.163552) can0 0CF00400#F07DE10000FFFFFF
(1676937905.175194) can0 08FE6E0B#FFFEFFFEFFFEFFFE
(1676937905.178022) can0 18EBF900#A600000000000000
(1676937905.178547) can0 0CF00400#F07DE10000FFFFFF
(1676937905.193454) can0 18EBF900#A700000000000000
(1676937905.194017) can0 0CF00400#F07DE10000FFFFFF
(1676937905.194624) can0 0CF00300#FF0000FFFFFFFFFF
(1676937905.195182) can0 08FE6E0B#FFFEFFFEFFFEFFFE
(1676937905.195772) can0 18F00029#F07DFFFFFFFFFFFF
(1676937905.196398) can0 18F0010B#C0FF33FFFF500B3F
(1676937905.196907) can0 18FEF200#000000001005FFFF
(1676937905.197479) can0 18FEBF0B#FFFEFFFFFFFFFFFF
(1676937905.198054) can0 18FEF100#FF000050000000FF
(1676937905.207914) can0 18EBF900#A800000000000000
(1676937905.208465) can0 0CF00400#F07DE10000FFFFFF
(1676937905.215106) can0 08FE6E0B#FFFEFFFEFFFEFFFE
(1676937905.222931) can0 18EBF900#A900000000000000
(1676937905.223459) can0 0CF00400#F07DE10000FFFFFF
(1676937905.235097) can0 08FE6E0B#FFFEFFFEFFFEFFFE
(1676937905.237892) can0 18EBF900#AA00000000000000
(1676937905.238438) can0 0CF00400#F07DE10000FFFFFF
(1676937905.253155) can0 18EBF900#AB00000000000000
(1676937905.253670) can0 0CF00400#F07DE10000FFFFFF
(1676937905.254339) can0 0CF00300#FF0000FFFFFFFFFF
(1676937905.255105) can0 08FE6E0B#FFFEFFFEFFFEFFFE
(1676937905.267765) can0 18EBF900#AC00000000000000
(1676937905.268315) can0 0CF00400#F07DE10000FFFFFF
(1676937905.275123) can0 08FE6E0B#FFFEFFFEFFFEFFFE
(1676937905.282865) can0 18EBF900#AD00000000000000
(1676937905.283421) can0 0CF00400#F07DE10000FFFFFF
(1676937905.287850) can0 18ECFF0B#201A0004FFCAFE00
(1676937905.295096) can0 08FE6E0B#FFFEFFFEFFFEFFFE
(1676937905.295631) can0 18F0010B#C0FF33FFFF500B3F
(1676937905.296202) can0 18FEBF0B#FFFEFFFFFFFFFFFF
(1676937905.298294) can0 18EBF900#AE00000000000000
(1676937905.298825) can0 0CF00400#F07DE10000FFFFFF
(1676937905.299522) can0 0CF00300#FF0000FFFFFFFFFF
(1676937905.300110) can0 18F00029#F07DFFFFFFFFFFFF
(1676937905.300789) can0 18FEF200#000000001005FFFF
(1676937905.301414) can0 18FEF100#FF000050000000FF
(1676937905.312939) can0 18EBF900#AF00000000000000
(1676937905.313462) can0 0CF00400#F07DE10000FFFFFF
(1676937905.315155) can0 08FE6E0B#FFFEFFFEFFFEFFFE
(1676937905.327731) can0 18EBF900#B000000000000000
(1676937905.328217) can0 0CF00400#F07DE10000FFFFFF
(1676937905.335141) can0 08FE6E0B#FFFEFFFEFFFEFFFE
(1676937905.337633) can0 18EBFF0B#0104FF1503027E16
(1676937905.342941) can0 18EBF900#B100000000000000
(1676937905.343327) can0 0CF00400#F07DE10000FFFFFF
(1676937905.344004) can0 0CF00300#FF0000FFFFFFFFFF
(1676937905.344620) can0 18FEDF00#8AE015FFFFFFFFFF
(1676937905.355206) can0 08FE6E0B#FFFEFFFEFFFEFFFE
(1676937905.357687) can0 18EBF900#B200000000000000
(1676937905.358276) can0 0CF00400#F07DE10000FFFFFF
(1676937905.372960) can0 18EBF900#B300000000000000
(1676937905.373339) can0 0CF00400#F07DE10000FFFFFF
(1676937905.375195) can0 08FE6E0B#FFFEFFFEFFFEFFFE
(1676937905.387590) can0 18EBFF0B#0203027E1703027E
(1676937905.388084) can0 0CF00400#F07DE10000FFFFFF
(1676937905.388737) can0 18EBF900#B400000000000000
(1676937905.395164) can0 08FE6E0B#FFFEFFFEFFFEFFFE
(1676937905.395655) can0 18F0010B#C0FF33FFFF500B3F
(1676937905.396243) can0 18FEBF0B#FFFEFFFFFFFFFFFF
(1676937905.403006) can0 18EBF900#B500000000000000
(1676937905.403622) can0 0CF00400#F07DE10000FFFFFF
(1676937905.404198) can0 0CF00300#FF0000FFFFFFFFFF
(1676937905.404816) can0 18F00029#F07DFFFFFFFFFFFF
(1676937905.405518) can0 18FEF200#000000001005FFFF
(1676937905.406112) can0 18FEF100#FF000050000000FF
(1676937905.415185) can0 08FE6E0B#FFFEFFFEFFFEFFFE
(1676937905.417571) can0 18EBF900#B600000000000000
(1676937905.418143) can0 0CF00400#F07DE10000FFFFFF
(1676937905.432742) can0 18EBF900#B700000000000000
(1676937905.433197) can0 0CF00400#F07DE10000FFFFFF
(1676937905.435207) can0 08FE6E0B#FFFEFFFEFFFEFFFE
(1676937905.437571) can0 18EBFF0B#031803027E220304
(1676937905.447687) can0 18EBF900#B800000000000000
(1676937905.448074) can0 0CF00400#F07DE10000FFFFFF
(1676937905.448759) can0 0CF00300#FF0000FFFFFFFFFF
(1676937905.455168) can0 08FE6E0B#FFFEFFFEFFFEFFFE
(1676937905.462589) can0 18EBF900#B900000000000000
(1676937905.463045) can0 0CF00400#F07DE10000FFFFFF
(1676937905.475154) can0 08FE6E0B#FFFEFFFEFFFEFFFE
(1676937905.477488) can0 18EBF900#BA00000000000000
(1676937905.477992) can0 0CF00400#F07DE10000FFFFFF
(1676937905.487706) can0 18EBFF0B#047E18030701FFFF
(1676937905.493119) can0 18EBF900#BB00000000000000
(1676937905.493621) can0 0CF00400#F07DE10000FFFFFF
(1676937905.494258) can0 0CF00300#FF0000FFFFFFFFFF
(1676937905.494901) can0 18F00029#F07DFFFFFFFFFFFF
(1676937905.495462) can0 08FE6E0B#FFFEFFFEFFFEFFFE
(1676937905.496026) can0 18FEF200#000000001005FFFF
(1676937905.496521) can0 18F0010B#C0FF33FFFF500B3F
(1676937905.497168) can0 18FEF100#FF000050000000FF
(1676937905.497684) can0 18FEBF0B#FFFEFFFFFFFFFFFF
(1676937905.507373) can0 18EBF900#BC00000000000000
(1676937905.507934) can0 0CF00400#F07DE10000FFFFFF
(1676937905.515113) can0 08FE6E0B#FFFEFFFEFFFEFFFE
(1676937905.522467) can0 18EBF900#BD00000000000000
(1676937905.522955) can0 0CF00400#F07DE10000FFFFFF
(1676937905.535162) can0 08FE6E0B#FFFEFFFEFFFEFFFE
(1676937905.537387) can0 18EBF900#BE00000000000000
(1676937905.537934) can0 0CF00400#F07DE10000FFFFFF
(1676937905.552630) can0 18EBF900#BF00000000000000
(1676937905.553028) can0 0CF00400#F07DE10000FFFFFF
(1676937905.553756) can0 0CF00300#FF0000FFFFFFFFFF
(1676937905.555159) can0 08FE6E0B#FFFEFFFEFFFEFFFE
(1676937905.567451) can0 18EBF900#C000000000000000
(1676937905.567823) can0 0CF00400#F07DE10000FFFFFF
(1676937905.575233) can0 08FE6E0B#FFFEFFFEFFFEFFFE
(1676937905.582463) can0 18EBF900#C100000000000000
(1676937905.582860) can0 0CF00400#F07DE10000FFFFFF
(1676937905.595217) can0 08FE6E0B#FFFEFFFEFFFEFFFE
(1676937905.595627) can0 18F0010B#C0FF33FFFF500B3F
(1676937905.596239) can0 18FEBF0B#FFFEFFFFFFFFFFFF
(1676937905.598147) can0 18EBF900#C200000000000000
(1676937905.598707) can0 0CF00400#F07DE10000FFFFFF
(1676937905.599266) can0 0CF00300#FF0000FFFFFFFFFF
(1676937905.599900) can0 18FEDF00#8AE015FFFFFFFFFF
(1676937905.600679) can0 18F00029#F07DFFFFFFFFFFFF
(1676937905.601196) can0 18FEF200#000000001005FFFF
(1676937905.601866) can0 18FEF600#FF007DFFFFFFFFFF
(1676937905.602501) can0 18FEDB00#8011FFFFFFFFFFFF
(1676937905.603108) can0 18FEF100#FF000050000000FF
(1676937905.603743) can0 18FEEF00#FFFFFF96FFFFFFFF
(1676937905.612450) can0 18EBF900#C300000000000000
(1676937905.612987) can0 0CF00400#F07DE10000FFFFFF
(1676937905.615106) can0 08FE6E0B#FFFEFFFEFFFEFFFE
(1676937905.627256) can0 18EBF900#C400000000000000
(1676937905.627757) can0 0CF00400#F07DE10000FFFFFF
(1676937905.635187) can0 08FE6E0B#FFFEFFFEFFFEFFFE
(1676937905.642400) can0 18EBF900#C500000000000000
(1676937905.642883) can0 0CF00400#F07DE10000FFFFFF
(1676937905.643472) can0 0CF00300#FF0000FFFFFFFFFF
(1676937905.655217) can0 08FE6E0B#FFFEFFFEFFFEFFFE
(1676937905.657339) can0 18EBF900#C600000000000000
(1676937905.657795) can0 0CF00400#F07DE10000FFFFFF
(1676937905.672395) can0 18EBF900#C700000000000000
(1676937905.672798) can0 0CF00400#F07DE10000FFFFFF
(1676937905.675192) can0 08FE6E0B#FFFEFFFEFFFEFFFE
(1676937905.687196) can0 18EBF900#C800000000000000
(1676937905.687625) can0 0CF00400#F07DE10000FFFFFF
(1676937905.695119) can0 08FE6E0B#FFFEFFFEFFFEFFFE
(1676937905.695657) can0 18F0010B#C0FF33FFFF500B3F
(1676937905.696248) can0 18FEBF0B#FFFEFFFFFFFFFFFF
(1676937905.702638) can0 18EBF900#C900000000000000
(1676937905.703107) can0 0CF00400#F07DE10000FFFFFF
(1676937905.703706) can0 0CF00300#FF0000FFFFFFFFFF
(1676937905.704345) can0 18F00029#F07DFFFFFFFFFFFF
(1676937905.704993) can0 18FEF200#000000001005FFFF
(1676937905.705708) can0 18FEF100#FF000050000000FF
(1676937905.715148) can0 08FE6E0B#FFFEFFFEFFFEFFFE
(1676937905.717165) can0 18EBF900#CA00000000000000
(1676937905.717672) can0 0CF00400#F07DE10000FFFFFF
(1676937905.732295) can0 18EBF900#CB00000000000000
(1676937905.732869) can0 0CF00400#F07DE10000FFFFFF
(1676937905.735157) can0 08FE6E0B#FFFEFFFEFFFEFFFE
(1676937905.747155) can0 18EBF900#CC00000000000000
(1676937905.747632) can0 0CF00400#F07DE10000FFFFFF
(1676937905.748248) can0 0CF00300#FF0000FFFFFFFFFF
(1676937905.755221) can0 08FE6E0B#FFFEFFFEFFFEFFFE
(1676937905.762032) can0 18EBF900#CD00000000000000
(1676937905.762693) can0 0CF00400#F07DE10000FFFFFF
(1676937905.775208) can0 08FE6E0B#FFFEFFFEFFFEFFFE
(1676937905.777132) can0 18EBF900#CE00000000000000
(1676937905.777685) can0 0CF00400#F07DE10000FFFFFF
(1676937905.792631) can0 18EBF900#CF00000000000000
(1676937905.793051) can0 0CF00400#F07DE10000FFFFFF
(1676937905.793723) can0 0CF00300#FF0000FFFFFFFFFF
(1676937905.794358) can0 18F00029#F07DFFFFFFFFFFFF
(1676937905.794992) can0 18FEF200#000000001005FFFF
(1676937905.795503) can0 08FE6E0B#FFFEFFFEFFFEFFFE
(1676937905.796057) can0 18FEF100#FF000050000000FF
(1676937905.796707) can0 18F0010B#C0FF33FFFF500B3F
(1676937905.797215) can0 18FEBF0B#FFFEFFFFFFFFFFFF
(1676937905.806993) can0 18EBF900#D000000000000000
(1676937905.807501) can0 0CF00400#F07DE10000FFFFFF
(1676937905.815210) can0 08FE6E0B#FFFEFFFEFFFEFFFE
(1676937905.822100) can0 18EBF900#D100000000000000
(1676937905.822475) can0 0CF00400#F07DE10000FFFFFF
(1676937905.835203) can0 08FE6E0B#FFFEFFFEFFFEFFFE
(1676937905.837201) can0 18EBF900#D200000000000000
(1676937905.837622) can0 0CF00400#F07DE10000FFFFFF
(1676937905.852186) can0 18EBF900#D300000000000000
(1676937905.852620) can0 0CF00400#F07DE10000FFFFFF
(1676937905.853247) can0 0CF00300#FF0000FFFFFFFFFF
(1676937905.853953) can0 18FEDF00#8AE015FFFFFFFFFF
(1676937905.855160) can0 08FE6E0B#FFFEFFFEFFFEFFFE
(1676937905.866864) can0 18EBF900#D400000000000000
(1676937905.867373) can0 0CF00400#F07DE10000FFFFFF
(1676937905.875223) can0 08FE6E0B#FFFEFFFEFFFEFFFE
(1676937905.881995) can0 18EBF900#D500000000000000
(1676937905.882422) can0 0CF00400#F07DE10000FFFFFF
(1676937905.895210) can0 08FE6E0B#FFFEFFFEFFFEFFFE
(1676937905.895631) can0 18F0010B#C0FF33FFFF500B3F
(1676937905.896283) can0 18FEBF0B#FFFEFFFFFFFFFFFF
(1676937905.897666) can0 18EBF900#D600000000000000
(1676937905.898112) can0 0CF00400#F07DE10000FFFFFF
(1676937905.898818) can0 0CF00300#FF0000FFFFFFFFFF
(1676937905.899410) can0 18F00029#F07DFFFFFFFFFFFF
(1676937905.900017) can0 18FEF200#000000001005FFFF
(1676937905.900606) can0 18FEF100#FF000050000000FF
(1676937905.911994) can0 18EBF900#D700000000000000
(1676937905.912425) can0 0CF00400#F07DE10000FFFFFF
(1676937905.915062) can0 08FE6E0B#FFFEFFFEFFFEFFFE
(1676937905.926862) can0 18EBF900#D800000000000000
(1676937905.927232) can0 0CF00400#F07DE10000FFFFFF
(1676937905.935103) can0 08FE6E0B#FFFEFFFEFFFEFFFE
(1676937905.941865) can0 18EBF900#D900000000000000
(1676937905.942304) can0 0CF00400#F07DE10000FFFFFF
(1676937905.943049) can0 0CF00300#FF0000FFFFFFFFFF
(1676937905.955168) can0 08FE6E0B#FFFEFFFEFFFEFFFE
(1676937905.956926) can0 18EBF900#DA00000000000000
(1676937905.957352) can0 0CF00400#F07DE10000FFFFFF
(1676937905.972008) can0 18EBF900#DB00000000000000
(1676937905.972495) can0 0CF00400#F07DE10000FFFFFF
(1676937905.975198) can0 08FE6E0B#FFFEFFFEFFFEFFFE
(1676937905.986741) can0 18EBF900#DC00000000000000
(1676937905.987167) can0 0CF00400#F07DE10000FFFFFF
(1676937905.995220) can0 08FE6E0B#FFFEFFFEFFFEFFFE
(1676937905.995629) can0 18F0010B#C0FF33FFFF500B3F
(1676937905.996270) can0 18FEBF0B#FFFEFFFFFFFFFFFF
(1676937906.002177) can0 18EBF900#DD00000000000000
(1676937906.002633) can0 0CF00400#F07DE10000FFFFFF
(1676937906.003250) can0 0CF00300#FF0000FFFFFFFFFF
(1676937906.003892) can0 18F00029#F07DFFFFFFFFFFFF
(1676937906.004499) can0 18FEF200#000000001005FFFF
(1676937906.005089) can0 18FEF100#FF000050000000FF
(1676937906.015212) can0 08FE6E0B#FFFEFFFEFFFEFFFE
(1676937906.016798) can0 18EBF900#DE00000000000000
(1676937906.017258) can0 0CF00400#F07DE10000FFFFFF
(1676937906.031819) can0 18EBF900#DF00000000000000
(1676937906.032310) can0 0CF00400#F07DE10000FFFFFF
(1676937906.035169) can0 08FE6E0B#FFFEFFFEFFFEFFFE
(1676937906.046700) can0 18EBF900#E000000000000000
(1676937906.047123) can0 0CF00400#F07DE10000FFFFFF
(1676937906.047828) can0 0CF00300#FF0000FFFFFFFFFF
(1676937906.055218) can0 08FE6E0B#FFFEFFFEFFFEFFFE
(1676937906.061595) can0 18EBF900#E100000000000000
(1676937906.062080) can0 0CF00400#F07DE10000FFFFFF
(1676937906.075198) can0 08FE6E0B#FFFEFFFEFFFEFFFE
(1676937906.076690) can0 18EBF900#E200000000000000
(1676937906.077212) can0 0CF00400#F07DE10000FFFFFF
(1676937906.092427) can0 18EBF900#E300000000000000
(1676937906.092831) can0 0CF00400#F07DE10000FFFFFF
(1676937906.093531) can0 0CF00300#FF0000FFFFFFFFFF
(1676937906.094159) can0 18FEDF00#8AE015FFFFFFFFFF
(1676937906.094754) can0 18F00029#F07DFFFFFFFFFFFF
(1676937906.095293) can0 08FE6E0B#FFFEFFFEFFFEFFFE
(1676937906.095866) can0 18FEEE00#1EFFFFFFFFFFFFFF
(1676937906.096438) can0 18F0010B#C0FF33FFFF500B3F
(1676937906.097001) can0 18FEF200#000000001005FFFF
(1676937906.097635) can0 18FEBF0B#FFFEFFFFFFFFFFFF
(1676937906.098206) can0 18FEF600#FF007DFFFFFFFFFF
(1676937906.098821) can0 18FEDB00#8011FFFFFFFFFFFF
(1676937906.099457) can0 18FEF100#FF000050000000FF
(1676937906.100088) can0 18FEEF00#FFFFFF96FFFFFFFF
(1676937906.106339) can0 18EBF900#E400000000000000
(1676937906.106909) can0 0CF00400#F07DE10000FFFFFF
(1676937906.115073) can0 08FE6E0B#FFFEFFFEFFFEFFFE
(1676937906.121416) can0 18EBF900#E500000578000000
(1676937906.121966) can0 0CF00400#F07DE10000FFFFFF
(1676937906.135196) can0 08FE6E0B#FFFEFFFEFFFEFFFE
(1676937906.136624) can0 18EBF900#E600000000000000
(1676937906.137086) can0 0CF00400#F07DE10000FFFFFF
(1676937906.151697) can0 18EBF900#E700000000000000
(1676937906.152083) can0 0CF00400#F07DE10000FFFFFF
(1676937906.152756) can0 0CF00300#FF0000FFFFFFFFFF
(1676937906.155164) can0 08FE6E0B#FFFEFFFEFFFEFFFE
(1676937906.166427) can0 18EBF900#E800006000000000
(1676937906.166827) can0 0CF00400#F07DE10000FFFFFF
(1676937906.175187) can0 08FE6E0B#FFFEFFFEFFFEFFFE
(1676937906.181367) can0 18EBF900#E900000000000000
(1676937906.181949) can0 0CF00400#F07DE10000FFFFFF
(1676937906.195225) can0 08FE6E0B#FFFEFFFEFFFEFFFE
(1676937906.195612) can0 18F0010B#C0FF33FFFF500B3F
(1676937906.196252) can0 18FEBF0B#FFFEFFFFFFFFFFFF
(1676937906.197079) can0 18EBF900#EA00000000000000
(1676937906.197637) can0 0CF00400#F07DE10000FFFFFF
(1676937906.198224) can0 0CF00300#FF0000FFFFFFFFFF
(1676937906.198895) can0 18F00029#F07DFFFFFFFFFFFF
(1676937906.199594) can0 18FEF200#000000001005FFFF
(1676937906.200198) can0 18FEF100#FF000050000000FF
(1676937906.211543) can0 18EBF900#EB14DB0000000000
(1676937906.212058) can0 0CF00400#F07DE10000FFFFFF
(1676937906.215114) can0 08FE6E0B#FFFEFFFEFFFEFFFE
(1676937906.226312) can0 18EBF900#EC00000000290000
(1676937906.226771) can0 0CF00400#F07DE10000FFFFFF
(1676937906.235165) can0 08FE6E0B#FFFEFFFEFFFEFFFE
(1676937906.241293) can0 18EBF900#ED00000000000000
(1676937906.241920) can0 0CF00400#F07DE10000FFFFFF
(1676937906.242557) can0 0CF00300#FF0000FFFFFFFFFF
(1676937906.255172) can0 08FE6E0B#FFFEFFFEFFFEFFFE
(1676937906.256394) can0 18EBF900#EE00000000000000
(1676937906.256890) can0 0CF00400#F07DE10000FFFFFF
(1676937906.271437) can0 18EBF900#EF00000000000000
(1676937906.271828) can0 0CF00400#F07DE10000FFFFFF
(1676937906.275188) can0 08FE6E0B#FFFEFFFEFFFEFFFE
(1676937906.286240) can0 18EBF900#F000000000000000
(1676937906.286655) can0 0CF00400#F07DE10000FFFFFF
(1676937906.287943) can0 18ECFF0B#201A0004FFCAFE00
(1676937906.295179) can0 08FE6E0B#FFFEFFFEFFFEFFFE
(1676937906.295668) can0 18F0010B#C0FF33FFFF500B3F
(1676937906.296243) can0 18FEBF0B#FFFEFFFFFFFFFFFF
(1676937906.301650) can0 18EBF900#F100000000000000
(1676937906.302177) can0 0CF00400#F07DE10000FFFFFF
(1676937906.302823) can0 0CF00300#FF0000FFFFFFFFFF
(1676937906.303439) can0 18F00029#F07DFFFFFFFFFFFF
(1676937906.304098) can0 18FEF200#000000001005FFFF
(1676937906.304634) can0 18FEF100#FF000050000000FF
(1676937906.315195) can0 08FE6E0B#FFFEFFFEFFFEFFFE
(1676937906.316371) can0 18EBF900#F2000BE000000000
(1676937906.316739) can0 0CF00400#F07DE10000FFFFFF
(1676937906.331209) can0 18EBF900#F30000000006A400
(1676937906.331820) can0 0CF00400#F07DE10000FFFFFF
(1676937906.335157) can0 08FE6E0B#FFFEFFFEFFFEFFFE
(1676937906.337605) can0 18EBFF0B#0104FF1503027E16
(1676937906.346223) can0 18EBF900#F400000000000000
(1676937906.346669) can0 0CF00400#F07DE10000FFFFFF
(1676937906.347364) can0 0CF00300#FF0000FFFFFFFFFF
(1676937906.348019) can0 18FEDF00#8AE015FFFFFFFFFF
(1676937906.355209) can0 08FE6E0B#FFFEFFFEFFFEFFFE
(1676937906.361211) can0 18EBF900#F500000000000000
(1676937906.361634) can0 0CF00400#F07DE10000FFFFFF
(1676937906.375203) can0 08FE6E0B#FFFEFFFEFFFEFFFE
(1676937906.376190) can0 18EBF900#F600000000400000
(1676937906.376716) can0 0CF00400#F07DE10000FFFFFF
(1676937906.387713) can0 18EBFF0B#0203027E1703027E
(1676937906.391672) can0 18EBF900#F700000000000000
(1676937906.392081) can0 0CF00400#F07DE10000FFFFFF
(1676937906.392801) can0 0CF00300#FF0000FFFFFFFFFF
(1676937906.393300) can0 18F00029#F07DFFFFFFFFFFFF
(1676937906.394063) can0 18FEF200#000000001005FFFF
(1676937906.394692) can0 18FEF100#FF000050000000FF
(1676937906.395247) can0 08FE6E0B#FFFEFFFEFFFEFFFE
(1676937906.395803) can0 18F0010B#C0FF33FFFF500B3F
(1676937906.396367) can0 18FEBF0B#FFFEFFFFFFFFFFFF
(1676937906.405979) can0 18EBF900#F8F4000000000000
(1676937906.406444) can0 0CF00400#F07DE10000FFFFFF
(1676937906.415191) can0 08FE6E0B#FFFEFFFEFFFEFFFE
(1676937906.421100) can0 18EBF900#F9FFFFFFF6000000
(1676937906.421557) can0 0CF00400#F07DE10000FFFFFF
(1676937906.435227) can0 08FE6E0B#FFFEFFFEFFFEFFFE
(1676937906.436086) can0 18EBF900#FA00000000000000
(1676937906.436631) can0 0CF00400#F07DE10000FFFFFF
(1676937906.437686) can0 18EBFF0B#031803027E220304
(1676937906.451279) can0 18EBF900#FB00000000000000
(1676937906.451695) can0 0CF00400#F07DE10000FFFFFF
(1676937906.452371) can0 0CF00300#FF0000FFFFFFFFFF
(1676937906.455188) can0 08FE6E0B#FFFEFFFEFFFEFFFE
(1676937906.465952) can0 18EBF900#FC00006000000000
(1676937906.466467) can0 0CF00400#F07DE10000FFFFFF
(1676937906.475186) can0 08FE6E0B#FFFEFFFEFFFEFFFE
(1676937906.481005) can0 18EBF900#FD00000000002800
(1676937906.481424) can0 0CF00400#F07DE10000FFFFFF
(1676937906.487676) can0 18EBFF0B#047E18030701FFFF
(1676937906.495192) can0 08FE6E0B#FFFEFFFEFFFEFFFE
(1676937906.495671) can0 18F0010B#C0FF33FFFF500B3F
(1676937906.496263) can0 18FEBF0B#FFFEFFFFFFFFFFFF
(1676937906.496853) can0 0CF00400#F07DE10000FFFFFF
(1676937906.497411) can0 18EBF900#FE00000000000000
(1676937906.498007) can0 0CF00300#FF0000FFFFFFFFFF
(1676937906.498673) can0 18F00029#F07DFFFFFFFFFFFF
(1676937906.499239) can0 18FEF200#000000001005FFFF
(1676937906.499891) can0 18FEF100#FF000050000000FF
(1676937906.511018) can0 18EBF900#FF00800000000000
(1676937906.511483) can0 0CF00400#F07DE10000FFFFFF
(1676937906.515135) can0 08FE6E0B#FFFEFFFEFFFEFFFE
(1676937906.525783) can0 18EBF900#0000000000550000
(1676937906.526288) can0 0CF00400#F07DE10000FFFFFF
(1676937906.535213) can0 08FE6E0B#FFFEFFFEFFFEFFFE
(1676937906.540914) can0 18EBF900#01E015B380528F40
(1676937906.541366) can0 0CF00400#F07DE10000FFFFFF
(1676937906.542007) can0 0CF00300#FF0000FFFFFFFFFF
(1676937906.555215) can0 08FE6E0B#FFFEFFFEFFFEFFFE
(1676937906.555834) can0 18EBF900#021FD3002DE0C044
(1676937906.556391) can0 0CF00400#F07DE10000FFFFFF
(1676937906.570969) can0 18EBF900#03CD8052FFFFA404
(1676937906.571446) can0 0CF00400#F07DE10000FFFFFF
(1676937906.575169) can0 08FE6E0B#FFFEFFFEFFFEFFFE
(1676937906.585742) can0 18EBF900#04C058FAFFFFFFFF
(1676937906.586218) can0 0CF00400#F07DE10000FFFFFF
(1676937906.595129) can0 08FE6E0B#FFFEFFFEFFFEFFFE
(1676937906.595698) can0 18F0010B#C0FF33FFFF500B3F
(1676937906.596256) can0 18FEBF0B#FFFEFFFFFFFFFFFF
(1676937906.601355) can0 0CF00400#F07DE10000FFFFFF
(1676937906.601954) can0 0CF00300#FF0000FFFFFFFFFF
(1676937906.602595) can0 18FEDF00#8AE015FFFFFFFFFF
(1676937906.603181) can0 18F00029#F07DFFFFFFFFFFFF
(1676937906.603784) can0 18FEF200#000000001005FFFF
(1676937906.604400) can0 18FEF600#FF007DFFFFFFFFFF
(1676937906.605084) can0 18FEDB00#8011FFFFFFFFFFFF
(1676937906.605779) can0 18FEF100#FF000050000000FF
(1676937906.606349) can0 18FEEF00#FFFFFF96FFFFFFFF
(1676937906.615159) can0 08FE6E0B#FFFEFFFEFFFEFFFE
(1676937906.615627) can0 0CF00400#F07DE10000FFFFFF
(1676937906.630834) can0 0CF00400#F07DE10000FFFFFF
(1676937906.635181) can0 08FE6E0B#FFFEFFFEFFFEFFFE
(1676937906.645739) can0 0CF00400#F07DE10000FFFFFF
(1676937906.646249) can0 0CF00300#FF0000FFFFFFFFFF
(1676937906.655182) can0 08FE6E0B#FFFEFFFEFFFEFFFE
(1676937906.660654) can0 0CF00400#F07DE10000FFFFFF
(1676937906.675226) can0 08FE6E0B#FFFEFFFEFFFEFFFE
(1676937906.675627) can0 0CF00400#F07DE10000FFFFFF
